
Circuit: Titulo: Circuito CKT_figura3 c/ transistor MOS

Warning: Pd = 0 is less than W.
Warning: Ps = 0 is less than W.
Warning: Pd = 0 is less than W.
Warning: Ps = 0 is less than W.
Warning: Pd = 0 is less than W.
Warning: Ps = 0 is less than W.
Warning: Pd = 0 is less than W.
Warning: Ps = 0 is less than W.
Circuit: Titulo: Circuito CKT_figura3 c/ transistor MOS
Date: Sat Sep 18 15:29:21  2010


                 Titulo: Circuito CKT_figura3 c/ transistor MOS
                 Transient Analysis  Sat Sep 18 15:29:21  2010
--------------------------------------------------------------------------------
Index   time            v(2)            v(4)            v(5)            
--------------------------------------------------------------------------------
0	0.000000e+00	0.000000e+00	8.573152e-09	4.592386e-09	
1	1.000000e-14	1.020000e-01	2.297668e-05	2.331392e-05	
2	2.000000e-14	2.040000e-01	8.443257e-05	8.599943e-05	
3	4.000000e-14	4.080000e-01	3.047701e-04	3.119303e-04	
4	8.000000e-14	8.160000e-01	1.427826e-03	1.483334e-03	
5	1.600000e-13	1.632000e+00	5.898193e-03	6.341435e-03	
6	3.200000e-13	3.264000e+00	1.750176e-02	2.014165e-02	
7	4.702723e-13	4.796777e+00	2.756862e-02	3.364434e-02	
8	7.708168e-13	7.862332e+00	4.312712e-02	5.710495e-02	
9	1.000000e-12	1.020000e+01	5.199955e-02	7.159721e-02	
10	1.010355e-12	1.020000e+01	5.233175e-02	7.215864e-02	
11	1.031066e-12	1.020000e+01	5.292279e-02	7.320121e-02	
12	1.072488e-12	1.020000e+01	5.357053e-02	7.469411e-02	
13	1.155332e-12	1.020000e+01	5.305803e-02	7.553813e-02	
14	1.254558e-12	1.020000e+01	5.078489e-02	7.421936e-02	
15	1.453011e-12	1.020000e+01	4.564172e-02	6.919188e-02	
16	1.721291e-12	1.020000e+01	4.002428e-02	6.164402e-02	
17	2.257853e-12	1.020000e+01	3.252523e-02	4.922624e-02	
18	3.199406e-12	1.020000e+01	2.313612e-02	3.345415e-02	
19	4.791210e-12	1.020000e+01	9.124504e-03	1.200260e-02	
20	7.974820e-12	1.020000e+01	-1.588948e-02	-2.498338e-02	
21	1.434204e-11	1.020000e+01	-5.711207e-02	-8.142259e-02	
22	2.707648e-11	1.020000e+01	-1.126634e-01	-1.472072e-01	
23	4.999989e-11	1.020000e+01	-1.404452e-01	-1.681206e-01	
24	7.267073e-11	1.020000e+01	-1.156195e-01	-1.456967e-01	
25	9.819295e-11	1.020000e+01	-3.817922e-02	-9.133222e-02	
26	1.492374e-10	1.020000e+01	2.382611e-01	8.202373e-02	
27	1.963864e-10	1.020000e+01	6.393896e-01	3.097911e-01	
28	2.571088e-10	1.020000e+01	1.279515e+00	8.565052e-01	
29	3.089020e-10	1.020000e+01	1.903324e+00	1.542515e+00	
30	3.529482e-10	1.020000e+01	2.485758e+00	2.109432e+00	
31	3.881609e-10	1.020000e+01	2.880050e+00	2.601796e+00	
32	4.263476e-10	1.020000e+01	3.505961e+00	2.980137e+00	
33	4.675303e-10	1.020000e+01	4.474604e+00	3.804813e+00	
34	5.094827e-10	1.020000e+01	5.446387e+00	4.792190e+00	
35	5.575557e-10	1.020000e+01	6.387818e+00	5.822511e+00	
36	6.128479e-10	1.020000e+01	7.279453e+00	6.800650e+00	
37	7.009375e-10	1.020000e+01	8.315010e+00	7.976483e+00	
38	8.771168e-10	1.020000e+01	9.415723e+00	9.275347e+00	
39	1.013115e-09	1.020000e+01	9.724303e+00	9.659783e+00	
40	1.159957e-09	1.020000e+01	9.893783e+00	9.853605e+00	
41	1.303941e-09	1.020000e+01	9.961557e+00	9.949857e+00	
42	1.509333e-09	1.020000e+01	9.989931e+00	9.984157e+00	
43	1.728787e-09	1.020000e+01	9.996358e+00	9.997520e+00	
44	2.128787e-09	1.020000e+01	9.999537e+00	9.998143e+00	
45	2.528787e-09	1.020000e+01	9.998850e+00	1.000011e+01	
46	2.928787e-09	1.020000e+01	1.000002e+01	9.998803e+00	
47	3.328787e-09	1.020000e+01	9.999174e+00	1.000034e+01	
48	3.728787e-09	1.020000e+01	1.000016e+01	9.999030e+00	
49	4.128787e-09	1.020000e+01	9.999312e+00	1.000040e+01	
50	4.528787e-09	1.020000e+01	1.000021e+01	9.999149e+00	
51	4.928787e-09	1.020000e+01	9.999397e+00	1.000043e+01	
52	5.001000e-09	1.020000e+01	1.000016e+01	9.999265e+00	
53	5.001100e-09	9.180000e+00	9.995083e+00	9.993288e+00	
54	5.001125e-09	8.925000e+00	9.993525e+00	9.991398e+00	
55	5.001175e-09	8.415000e+00	9.989983e+00	9.987061e+00	
56	5.001275e-09	7.395000e+00	9.982011e+00	9.977118e+00	
57	5.001431e-09	5.798991e+00	9.970262e+00	9.962751e+00	
58	5.001730e-09	2.758956e+00	9.950921e+00	9.940514e+00	
59	5.002000e-09	2.177286e-12	9.936151e+00	9.923922e+00	
60	5.002012e-09	0.000000e+00	9.935592e+00	9.923287e+00	
61	5.002036e-09	0.000000e+00	9.934566e+00	9.922122e+00	
62	5.002083e-09	0.000000e+00	9.933191e+00	9.920601e+00	
63	5.002179e-09	0.000000e+00	9.932519e+00	9.920257e+00	
64	5.002291e-09	0.000000e+00	9.933143e+00	9.921780e+00	
65	5.002449e-09	0.000000e+00	9.934177e+00	9.923719e+00	
66	5.002725e-09	0.000000e+00	9.936075e+00	9.926178e+00	
67	5.003278e-09	0.000000e+00	9.939865e+00	9.930501e+00	
68	5.004205e-09	0.000000e+00	9.945615e+00	9.937078e+00	
69	5.005373e-09	0.000000e+00	9.952130e+00	9.944551e+00	
70	5.007286e-09	0.000000e+00	9.961882e+00	9.955787e+00	
71	5.011064e-09	0.000000e+00	9.979299e+00	9.975882e+00	
72	5.018621e-09	0.000000e+00	1.000925e+01	1.001065e+01	
73	5.033734e-09	0.000000e+00	1.005924e+01	1.006897e+01	
74	5.063961e-09	0.000000e+00	1.010945e+01	1.011066e+01	
75	5.117556e-09	0.000000e+00	9.833969e+00	9.603704e+00	
76	5.174949e-09	0.000000e+00	9.210073e+00	8.601591e+00	
77	5.232591e-09	0.000000e+00	8.563823e+00	7.584992e+00	
78	5.300249e-09	0.000000e+00	7.820511e+00	6.168417e+00	
79	5.368592e-09	0.000000e+00	6.976783e+00	4.075454e+00	
80	5.432498e-09	0.000000e+00	5.877745e+00	2.009935e+00	
81	5.483738e-09	0.000000e+00	4.712119e+00	9.820757e-01	
82	5.537706e-09	0.000000e+00	3.271309e+00	6.485803e-01	
83	5.604996e-09	0.000000e+00	1.777514e+00	4.759041e-01	
84	5.677321e-09	0.000000e+00	9.793491e-01	3.362334e-01	
85	5.748948e-09	0.000000e+00	7.271166e-01	2.211924e-01	
86	5.820133e-09	0.000000e+00	5.263444e-01	1.455064e-01	
87	5.898030e-09	0.000000e+00	3.496199e-01	8.820431e-02	
88	6.032910e-09	0.000000e+00	1.620007e-01	4.208137e-02	
89	6.246559e-09	0.000000e+00	4.460280e-02	1.225091e-02	
90	6.464221e-09	0.000000e+00	1.249505e-02	4.774098e-03	
91	6.698487e-09	0.000000e+00	2.922753e-03	5.704960e-04	
92	7.098487e-09	0.000000e+00	3.563340e-04	9.156379e-04	
93	7.498487e-09	0.000000e+00	-2.746869e-04	-8.252290e-04	
94	7.898487e-09	0.000000e+00	3.117309e-04	8.780305e-04	
95	8.298487e-09	0.000000e+00	-3.178814e-04	-9.044363e-04	
96	8.698487e-09	0.000000e+00	3.246138e-04	9.276461e-04	
97	9.098487e-09	0.000000e+00	-3.293130e-04	-9.459158e-04	
98	9.498487e-09	0.000000e+00	3.329211e-04	9.607114e-04	
99	9.898487e-09	0.000000e+00	-3.353934e-04	-9.722210e-04	
100	1.000000e-08	0.000000e+00	3.396644e-04	9.978152e-04	
101	1.000010e-08	1.020000e+00	4.557081e-03	5.554123e-03	
102	1.000030e-08	3.060000e+00	1.658681e-02	1.960010e-02	
103	1.000050e-08	5.150568e+00	3.046763e-02	3.785475e-02	
104	1.000054e-08	5.464148e+00	3.215798e-02	4.035136e-02	
105	1.000060e-08	6.091308e+00	3.543059e-02	4.525294e-02	
106	1.000072e-08	7.345628e+00	4.138217e-02	5.445650e-02	
107	1.000096e-08	9.803203e+00	5.116209e-02	7.012951e-02	
108	1.000100e-08	1.020000e+01	5.252208e-02	7.235913e-02	
109	1.000100e-08	1.020000e+01	5.263338e-02	7.254293e-02	
110	1.000101e-08	1.020000e+01	5.285143e-02	7.290546e-02	
111	1.000102e-08	1.020000e+01	5.324782e-02	7.358713e-02	
112	1.000105e-08	1.020000e+01	5.382141e-02	7.471117e-02	
113	1.000110e-08	1.020000e+01	5.408998e-02	7.596465e-02	
114	1.000121e-08	1.020000e+01	5.244956e-02	7.570000e-02	
115	1.000139e-08	1.020000e+01	4.770226e-02	7.156774e-02	
116	1.000163e-08	1.020000e+01	4.229481e-02	6.485112e-02	
117	1.000204e-08	1.020000e+01	3.566166e-02	5.434947e-02	
118	1.000288e-08	1.020000e+01	2.660330e-02	3.886397e-02	
119	1.000417e-08	1.020000e+01	1.489525e-02	2.055282e-02	
120	1.000676e-08	1.020000e+01	-6.392080e-03	-1.130903e-02	
121	1.001194e-08	1.020000e+01	-4.240574e-02	-6.208419e-02	
122	1.002229e-08	1.020000e+01	-9.585656e-02	-1.290165e-01	
123	1.003874e-08	1.020000e+01	-1.339333e-01	-1.649550e-01	
124	1.005525e-08	1.020000e+01	-1.386463e-01	-1.648878e-01	
125	1.007716e-08	1.020000e+01	-1.059824e-01	-1.386861e-01	
126	1.011889e-08	1.020000e+01	5.466567e-02	-3.027997e-02	
127	1.017106e-08	1.020000e+01	4.031250e-01	1.779218e-01	
128	1.024681e-08	1.020000e+01	1.168612e+00	7.313139e-01	
129	1.031608e-08	1.020000e+01	2.023512e+00	1.612839e+00	
130	1.037199e-08	1.020000e+01	2.691881e+00	2.365482e+00	
131	1.041652e-08	1.020000e+01	3.302007e+00	2.884468e+00	
132	1.046323e-08	1.020000e+01	4.366019e+00	3.686148e+00	
133	1.051055e-08	1.020000e+01	5.468619e+00	4.787299e+00	
134	1.055926e-08	1.020000e+01	6.417987e+00	5.837239e+00	
135	1.061627e-08	1.020000e+01	7.326827e+00	6.838593e+00	
136	1.070792e-08	1.020000e+01	8.381199e+00	8.041412e+00	
137	1.086722e-08	1.020000e+01	9.370421e+00	9.218305e+00	
138	1.099883e-08	1.020000e+01	9.696248e+00	9.624381e+00	
139	1.114525e-08	1.020000e+01	9.880035e+00	9.836329e+00	
140	1.129087e-08	1.020000e+01	9.955784e+00	9.942336e+00	
141	1.149240e-08	1.020000e+01	9.989144e+00	9.983524e+00	
142	1.170752e-08	1.020000e+01	9.996058e+00	9.996307e+00	
143	1.210752e-08	1.020000e+01	9.999225e+00	9.998554e+00	
144	1.250752e-08	1.020000e+01	9.999171e+00	9.999650e+00	
145	1.290752e-08	1.020000e+01	9.999648e+00	9.999216e+00	
146	1.330752e-08	1.020000e+01	9.999547e+00	9.999900e+00	
147	1.370752e-08	1.020000e+01	9.999773e+00	9.999463e+00	
148	1.410752e-08	1.020000e+01	9.999698e+00	9.999952e+00	
149	1.450752e-08	1.020000e+01	9.999819e+00	9.999604e+00	
150	1.490752e-08	1.020000e+01	9.999790e+00	9.999958e+00	
151	1.500100e-08	1.020000e+01	9.999779e+00	9.999753e+00	
152	1.500110e-08	9.180000e+00	9.994818e+00	9.993484e+00	
153	1.500112e-08	8.925000e+00	9.993251e+00	9.991513e+00	
154	1.500117e-08	8.415000e+00	9.989688e+00	9.987016e+00	
155	1.500127e-08	7.395000e+00	9.981698e+00	9.976842e+00	
156	1.500143e-08	5.796547e+00	9.969981e+00	9.962313e+00	
157	1.500173e-08	2.755676e+00	9.950771e+00	9.940109e+00	
158	1.500200e-08	0.000000e+00	9.936106e+00	9.923632e+00	
159	1.500201e-08	0.000000e+00	9.935550e+00	9.923000e+00	
160	1.500204e-08	0.000000e+00	9.934530e+00	9.921842e+00	
161	1.500208e-08	0.000000e+00	9.933166e+00	9.920332e+00	
162	1.500218e-08	0.000000e+00	9.932509e+00	9.920005e+00	
163	1.500229e-08	0.000000e+00	9.933148e+00	9.921546e+00	
164	1.500245e-08	0.000000e+00	9.934202e+00	9.923509e+00	
165	1.500272e-08	0.000000e+00	9.936118e+00	9.925994e+00	
166	1.500328e-08	0.000000e+00	9.939924e+00	9.930344e+00	
167	1.500420e-08	0.000000e+00	9.945681e+00	9.936947e+00	
168	1.500537e-08	0.000000e+00	9.952183e+00	9.944426e+00	
169	1.500728e-08	0.000000e+00	9.961918e+00	9.955671e+00	
170	1.501105e-08	0.000000e+00	9.979277e+00	9.975730e+00	
171	1.501858e-08	0.000000e+00	1.000915e+01	1.001045e+01	
172	1.503365e-08	0.000000e+00	1.005901e+01	1.006864e+01	
173	1.506379e-08	0.000000e+00	1.010966e+01	1.011116e+01	
174	1.511764e-08	0.000000e+00	9.833293e+00	9.602682e+00	
175	1.517478e-08	0.000000e+00	9.211861e+00	8.604309e+00	
176	1.523237e-08	0.000000e+00	8.566071e+00	7.588808e+00	
177	1.529978e-08	0.000000e+00	7.825666e+00	6.180318e+00	
178	1.536791e-08	0.000000e+00	6.986365e+00	4.099694e+00	
179	1.543196e-08	0.000000e+00	5.888603e+00	2.023422e+00	
180	1.548293e-08	0.000000e+00	4.732388e+00	9.921201e-01	
181	1.553717e-08	0.000000e+00	3.285152e+00	6.490233e-01	
182	1.560389e-08	0.000000e+00	1.797361e+00	4.786307e-01	
183	1.567700e-08	0.000000e+00	9.807856e-01	3.367433e-01	
184	1.574819e-08	0.000000e+00	7.293732e-01	2.222474e-01	
185	1.581934e-08	0.000000e+00	5.280966e-01	1.462130e-01	
186	1.589725e-08	0.000000e+00	3.509490e-01	8.863709e-02	
187	1.603145e-08	0.000000e+00	1.632517e-01	4.240715e-02	
188	1.624424e-08	0.000000e+00	4.525950e-02	1.242805e-02	
189	1.645877e-08	0.000000e+00	1.295769e-02	4.907784e-03	
190	1.669183e-08	0.000000e+00	3.075003e-03	6.152370e-04	
191	1.709183e-08	0.000000e+00	3.470302e-04	9.228788e-04	
192	1.749183e-08	0.000000e+00	-2.642316e-04	-8.292166e-04	
193	1.789183e-08	0.000000e+00	3.020635e-04	8.830740e-04	
194	1.829183e-08	0.000000e+00	-3.080539e-04	-9.097751e-04	
195	1.869183e-08	0.000000e+00	3.147547e-04	9.333320e-04	
196	1.909183e-08	0.000000e+00	-3.194377e-04	-9.518660e-04	
197	1.949183e-08	0.000000e+00	3.230656e-04	9.669274e-04	
198	1.989183e-08	0.000000e+00	-3.255671e-04	-9.786386e-04	
199	2.000000e-08	0.000000e+00	3.299505e-04	1.003938e-03	

                 Titulo: Circuito CKT_figura3 c/ transistor MOS
                 Transient Analysis  Sat Sep 18 15:29:21  2010
--------------------------------------------------------------------------------
Index   time            v(6)            v(20)           v(90)           
--------------------------------------------------------------------------------
0	0.000000e+00	2.597869e-09	1.000000e+00	9.000000e+00	
1	1.000000e-14	2.348946e-05	1.000000e+00	9.000000e+00	
2	2.000000e-14	8.682053e-05	1.000000e+00	9.000000e+00	
3	4.000000e-14	3.157148e-04	1.000000e+00	9.000000e+00	
4	8.000000e-14	1.513562e-03	1.000000e+00	9.000000e+00	
5	1.600000e-13	6.599417e-03	1.000000e+00	9.000000e+00	
6	3.200000e-13	2.187958e-02	1.000000e+00	9.000000e+00	
7	4.702723e-13	3.804169e-02	1.000000e+00	9.000000e+00	
8	7.708168e-13	6.909601e-02	1.000000e+00	9.000000e+00	
9	1.000000e-12	9.029269e-02	1.000000e+00	9.000000e+00	
10	1.010355e-12	9.115727e-02	1.000000e+00	9.000000e+00	
11	1.031066e-12	9.280292e-02	1.000000e+00	9.000000e+00	
12	1.072488e-12	9.546975e-02	1.000000e+00	9.000000e+00	
13	1.155332e-12	9.845292e-02	1.000000e+00	9.000000e+00	
14	1.254558e-12	9.922602e-02	1.000000e+00	9.000000e+00	
15	1.453011e-12	9.677247e-02	1.000000e+00	9.000000e+00	
16	1.721291e-12	8.997053e-02	1.000000e+00	9.000000e+00	
17	2.257853e-12	7.442400e-02	1.000000e+00	9.000000e+00	
18	3.199406e-12	4.984569e-02	1.000000e+00	9.000000e+00	
19	4.791210e-12	1.622368e-02	1.000000e+00	9.000000e+00	
20	7.974820e-12	-3.724216e-02	1.000000e+00	9.000000e+00	
21	1.434204e-11	-1.127378e-01	1.000000e+00	9.000000e+00	
22	2.707648e-11	-1.884738e-01	1.000000e+00	9.000000e+00	
23	4.999989e-11	-1.986498e-01	1.000000e+00	9.000000e+00	
24	7.267073e-11	-1.787041e-01	1.000000e+00	9.000000e+00	
25	9.819295e-11	-1.434103e-01	1.000000e+00	9.000000e+00	
26	1.492374e-10	-3.431900e-02	1.000000e+00	9.000000e+00	
27	1.963864e-10	9.628217e-02	1.000000e+00	9.000000e+00	
28	2.571088e-10	3.574007e-01	1.000000e+00	9.000000e+00	
29	3.089020e-10	1.071710e+00	1.000000e+00	9.000000e+00	
30	3.529482e-10	1.745727e+00	1.000000e+00	9.000000e+00	
31	3.881609e-10	2.190039e+00	1.000000e+00	9.000000e+00	
32	4.263476e-10	2.700689e+00	1.000000e+00	9.000000e+00	
33	4.675303e-10	3.161924e+00	1.000000e+00	9.000000e+00	
34	5.094827e-10	4.042577e+00	1.000000e+00	9.000000e+00	
35	5.575557e-10	5.119495e+00	1.000000e+00	9.000000e+00	
36	6.128479e-10	6.187106e+00	1.000000e+00	9.000000e+00	
37	7.009375e-10	7.501699e+00	1.000000e+00	9.000000e+00	
38	8.771168e-10	9.049628e+00	1.000000e+00	9.000000e+00	
39	1.013115e-09	9.545124e+00	1.000000e+00	9.000000e+00	
40	1.159957e-09	9.791118e+00	1.000000e+00	9.000000e+00	
41	1.303941e-09	9.919047e+00	1.000000e+00	9.000000e+00	
42	1.509333e-09	9.979046e+00	1.000000e+00	9.000000e+00	
43	1.728787e-09	9.994248e+00	1.000000e+00	9.000000e+00	
44	2.128787e-09	9.999478e+00	1.000000e+00	9.000000e+00	
45	2.528787e-09	9.998621e+00	1.000000e+00	9.000000e+00	
46	2.928787e-09	1.000016e+01	1.000000e+00	9.000000e+00	
47	3.328787e-09	9.998934e+00	1.000000e+00	9.000000e+00	
48	3.728787e-09	1.000040e+01	1.000000e+00	9.000000e+00	
49	4.128787e-09	9.999017e+00	1.000000e+00	9.000000e+00	
50	4.528787e-09	1.000052e+01	1.000000e+00	9.000000e+00	
51	4.928787e-09	9.999050e+00	1.000000e+00	9.000000e+00	
52	5.001000e-09	1.000062e+01	1.000000e+00	9.000000e+00	
53	5.001100e-09	9.992919e+00	1.000000e+00	9.000000e+00	
54	5.001125e-09	9.990530e+00	1.000000e+00	9.000000e+00	
55	5.001175e-09	9.985056e+00	1.000000e+00	9.000000e+00	
56	5.001275e-09	9.972239e+00	1.000000e+00	9.000000e+00	
57	5.001431e-09	9.953148e+00	1.000000e+00	9.000000e+00	
58	5.001730e-09	9.924232e+00	1.000000e+00	9.000000e+00	
59	5.002000e-09	9.903674e+00	1.000000e+00	9.000000e+00	
60	5.002012e-09	9.902887e+00	1.000000e+00	9.000000e+00	
61	5.002036e-09	9.901429e+00	1.000000e+00	9.000000e+00	
62	5.002083e-09	9.899426e+00	1.000000e+00	9.000000e+00	
63	5.002179e-09	9.898768e+00	1.000000e+00	9.000000e+00	
64	5.002291e-09	9.900855e+00	1.000000e+00	9.000000e+00	
65	5.002449e-09	9.904037e+00	1.000000e+00	9.000000e+00	
66	5.002725e-09	9.907925e+00	1.000000e+00	9.000000e+00	
67	5.003278e-09	9.913453e+00	1.000000e+00	9.000000e+00	
68	5.004205e-09	9.921401e+00	1.000000e+00	9.000000e+00	
69	5.005373e-09	9.930577e+00	1.000000e+00	9.000000e+00	
70	5.007286e-09	9.944402e+00	1.000000e+00	9.000000e+00	
71	5.011064e-09	9.969308e+00	1.000000e+00	9.000000e+00	
72	5.018621e-09	1.001283e+01	1.000000e+00	9.000000e+00	
73	5.033734e-09	1.008665e+01	1.000000e+00	9.000000e+00	
74	5.063961e-09	1.011831e+01	1.000000e+00	9.000000e+00	
75	5.117556e-09	9.285672e+00	1.000000e+00	9.000000e+00	
76	5.174949e-09	7.765919e+00	1.000000e+00	9.000000e+00	
77	5.232591e-09	6.031700e+00	1.000000e+00	9.000000e+00	
78	5.300249e-09	2.883652e+00	1.000000e+00	9.000000e+00	
79	5.368592e-09	8.726141e-01	1.000000e+00	9.000000e+00	
80	5.432498e-09	4.299875e-01	1.000000e+00	9.000000e+00	
81	5.483738e-09	3.897506e-01	1.000000e+00	9.000000e+00	
82	5.537706e-09	3.057293e-01	1.000000e+00	9.000000e+00	
83	5.604996e-09	2.091673e-01	1.000000e+00	9.000000e+00	
84	5.677321e-09	1.520819e-01	1.000000e+00	9.000000e+00	
85	5.748948e-09	9.516556e-02	1.000000e+00	9.000000e+00	
86	5.820133e-09	7.045190e-02	1.000000e+00	9.000000e+00	
87	5.898030e-09	3.901320e-02	1.000000e+00	9.000000e+00	
88	6.032910e-09	2.666880e-02	1.000000e+00	9.000000e+00	
89	6.246559e-09	5.554546e-03	1.000000e+00	9.000000e+00	
90	6.464221e-09	6.505096e-03	1.000000e+00	9.000000e+00	
91	6.698487e-09	-2.155764e-03	1.000000e+00	9.000000e+00	
92	7.098487e-09	3.464868e-03	1.000000e+00	9.000000e+00	
93	7.498487e-09	-3.343683e-03	1.000000e+00	9.000000e+00	
94	7.898487e-09	3.376738e-03	1.000000e+00	9.000000e+00	
95	8.298487e-09	-3.384859e-03	1.000000e+00	9.000000e+00	
96	8.698487e-09	3.392814e-03	1.000000e+00	9.000000e+00	
97	9.098487e-09	-3.395138e-03	1.000000e+00	9.000000e+00	
98	9.498487e-09	3.396237e-03	1.000000e+00	9.000000e+00	
99	9.898487e-09	-3.392877e-03	1.000000e+00	9.000000e+00	
100	1.000000e-08	3.364780e-03	1.000000e+00	9.000000e+00	
101	1.000010e-08	7.949849e-03	1.000000e+00	9.000000e+00	
102	1.000030e-08	2.306561e-02	1.000000e+00	9.000000e+00	
103	1.000050e-08	4.460362e-02	1.000000e+00	9.000000e+00	
104	1.000054e-08	4.779101e-02	1.000000e+00	9.000000e+00	
105	1.000060e-08	5.412761e-02	1.000000e+00	9.000000e+00	
106	1.000072e-08	6.646417e-02	1.000000e+00	9.000000e+00	
107	1.000096e-08	8.878112e-02	1.000000e+00	9.000000e+00	
108	1.000100e-08	9.211053e-02	1.000000e+00	9.000000e+00	
109	1.000100e-08	9.238751e-02	1.000000e+00	9.000000e+00	
110	1.000101e-08	9.293626e-02	1.000000e+00	9.000000e+00	
111	1.000102e-08	9.398876e-02	1.000000e+00	9.000000e+00	
112	1.000105e-08	9.584401e-02	1.000000e+00	9.000000e+00	
113	1.000110e-08	9.849290e-02	1.000000e+00	9.000000e+00	
114	1.000121e-08	1.006315e-01	1.000000e+00	9.000000e+00	
115	1.000139e-08	9.924020e-02	1.000000e+00	9.000000e+00	
116	1.000163e-08	9.373400e-02	1.000000e+00	9.000000e+00	
117	1.000204e-08	8.158675e-02	1.000000e+00	9.000000e+00	
118	1.000288e-08	5.851656e-02	1.000000e+00	9.000000e+00	
119	1.000417e-08	2.918136e-02	1.000000e+00	9.000000e+00	
120	1.000676e-08	-1.797779e-02	1.000000e+00	9.000000e+00	
121	1.001194e-08	-8.778357e-02	1.000000e+00	9.000000e+00	
122	1.002229e-08	-1.696478e-01	1.000000e+00	9.000000e+00	
123	1.003874e-08	-2.000849e-01	1.000000e+00	9.000000e+00	
124	1.005525e-08	-1.942531e-01	1.000000e+00	9.000000e+00	
125	1.007716e-08	-1.745989e-01	1.000000e+00	9.000000e+00	
126	1.011889e-08	-1.037668e-01	1.000000e+00	9.000000e+00	
127	1.017106e-08	2.139299e-02	1.000000e+00	9.000000e+00	
128	1.024681e-08	3.007335e-01	1.000000e+00	9.000000e+00	
129	1.031608e-08	1.187344e+00	1.000000e+00	9.000000e+00	
130	1.037199e-08	2.032709e+00	1.000000e+00	9.000000e+00	
131	1.041652e-08	2.568362e+00	1.000000e+00	9.000000e+00	
132	1.046323e-08	3.102835e+00	1.000000e+00	9.000000e+00	
