
Circuit: Titulo: Circuito NOR4 c/ transistor MOS

Warning: Pd = 0 is less than W.
Warning: Ps = 0 is less than W.
Warning: Pd = 0 is less than W.
Warning: Ps = 0 is less than W.
Circuit: Titulo: Circuito NOR4 c/ transistor MOS
Date: Mon Sep 13 10:41:50  2010


                    Titulo: Circuito NOR4 c/ transistor MOS
                    Transient Analysis  Mon Sep 13 10:41:49  2010
--------------------------------------------------------------------------------
Index   time            v(2)            v(3)            v(4)            
--------------------------------------------------------------------------------
0	0.000000e+00	0.000000e+00	0.000000e+00	0.000000e+00	
1	1.000000e-14	1.230000e-01	1.210000e-01	1.190000e-01	
2	2.000000e-14	2.460000e-01	2.420000e-01	2.380000e-01	
3	4.000000e-14	4.920000e-01	4.840000e-01	4.760000e-01	
4	8.000000e-14	9.840000e-01	9.680000e-01	9.520000e-01	
5	1.600000e-13	1.968000e+00	1.936000e+00	1.904000e+00	
6	2.453459e-13	3.017754e+00	2.968685e+00	2.919616e+00	
7	3.499409e-13	4.304273e+00	4.234285e+00	4.164297e+00	
8	5.363434e-13	6.597024e+00	6.489755e+00	6.382486e+00	
9	7.840473e-13	9.643782e+00	9.486973e+00	9.330163e+00	
10	8.110414e-13	9.975809e+00	9.813601e+00	9.651393e+00	
11	8.650296e-13	1.063986e+01	1.046686e+01	1.029385e+01	
12	9.730059e-13	1.196797e+01	1.177337e+01	1.157877e+01	
13	1.000000e-12	1.230000e+01	1.210000e+01	1.190000e+01	
14	1.001012e-12	1.230000e+01	1.210000e+01	1.190000e+01	
15	1.003035e-12	1.230000e+01	1.210000e+01	1.190000e+01	
16	1.007082e-12	1.230000e+01	1.210000e+01	1.190000e+01	
17	1.015175e-12	1.230000e+01	1.210000e+01	1.190000e+01	
18	1.022673e-12	1.230000e+01	1.210000e+01	1.190000e+01	
19	1.037669e-12	1.230000e+01	1.210000e+01	1.190000e+01	
20	1.057943e-12	1.230000e+01	1.210000e+01	1.190000e+01	
21	1.098491e-12	1.230000e+01	1.210000e+01	1.190000e+01	
22	1.173128e-12	1.230000e+01	1.210000e+01	1.190000e+01	
23	1.308406e-12	1.230000e+01	1.210000e+01	1.190000e+01	
24	1.519399e-12	1.230000e+01	1.210000e+01	1.190000e+01	
25	1.875744e-12	1.230000e+01	1.210000e+01	1.190000e+01	
26	2.443223e-12	1.230000e+01	1.210000e+01	1.190000e+01	
27	3.131259e-12	1.230000e+01	1.210000e+01	1.190000e+01	
28	4.192483e-12	1.230000e+01	1.210000e+01	1.190000e+01	
29	5.472616e-12	1.230000e+01	1.210000e+01	1.190000e+01	
30	7.502457e-12	1.230000e+01	1.210000e+01	1.190000e+01	
31	1.038855e-11	1.230000e+01	1.210000e+01	1.190000e+01	
32	1.347235e-11	1.230000e+01	1.210000e+01	1.190000e+01	
33	1.822472e-11	1.230000e+01	1.210000e+01	1.190000e+01	
34	2.546677e-11	1.230000e+01	1.210000e+01	1.190000e+01	
35	3.694770e-11	1.230000e+01	1.210000e+01	1.190000e+01	
36	5.990957e-11	1.230000e+01	1.210000e+01	1.190000e+01	
37	9.007919e-11	1.230000e+01	1.210000e+01	1.190000e+01	
38	1.504184e-10	1.230000e+01	1.210000e+01	1.190000e+01	
39	2.710969e-10	1.230000e+01	1.210000e+01	1.190000e+01	
40	4.732395e-10	1.230000e+01	1.210000e+01	1.190000e+01	
41	7.101691e-10	1.230000e+01	1.210000e+01	1.190000e+01	
42	1.030168e-09	1.230000e+01	1.210000e+01	1.190000e+01	
43	1.473364e-09	1.230000e+01	1.210000e+01	1.190000e+01	
44	2.275790e-09	1.230000e+01	1.210000e+01	1.190000e+01	
45	3.880643e-09	1.230000e+01	1.210000e+01	1.190000e+01	
46	7.090348e-09	1.230000e+01	1.210000e+01	1.190000e+01	
47	1.209035e-08	1.230000e+01	1.210000e+01	1.190000e+01	
48	1.500100e-08	1.230000e+01	1.210000e+01	1.190000e+01	
49	1.500101e-08	1.214625e+01	1.210000e+01	1.190000e+01	
50	1.500104e-08	1.183875e+01	1.210000e+01	1.190000e+01	
51	1.500109e-08	1.122375e+01	1.210000e+01	1.190000e+01	
52	1.500114e-08	1.060960e+01	1.210000e+01	1.190000e+01	
53	1.500124e-08	9.381289e+00	1.210000e+01	1.190000e+01	
54	1.500133e-08	8.190679e+00	1.210000e+01	1.190000e+01	
55	1.500153e-08	5.809458e+00	1.210000e+01	1.190000e+01	
56	1.500157e-08	5.280391e+00	1.210000e+01	1.190000e+01	
57	1.500166e-08	4.222255e+00	1.210000e+01	1.190000e+01	
58	1.500183e-08	2.105983e+00	1.210000e+01	1.190000e+01	
59	1.500200e-08	1.279987e-11	1.210000e+01	1.190000e+01	
60	1.500200e-08	0.000000e+00	1.210000e+01	1.190000e+01	
61	1.500201e-08	0.000000e+00	1.210000e+01	1.190000e+01	
62	1.500203e-08	0.000000e+00	1.210000e+01	1.190000e+01	
63	1.500204e-08	0.000000e+00	1.210000e+01	1.190000e+01	
64	1.500207e-08	0.000000e+00	1.210000e+01	1.190000e+01	
65	1.500211e-08	0.000000e+00	1.210000e+01	1.190000e+01	
66	1.500219e-08	0.000000e+00	1.210000e+01	1.190000e+01	
67	1.500233e-08	0.000000e+00	1.210000e+01	1.190000e+01	
68	1.500251e-08	0.000000e+00	1.210000e+01	1.190000e+01	
69	1.500269e-08	0.000000e+00	1.210000e+01	1.190000e+01	
70	1.500303e-08	0.000000e+00	1.210000e+01	1.190000e+01	
71	1.500350e-08	0.000000e+00	1.210000e+01	1.190000e+01	
72	1.500444e-08	0.000000e+00	1.210000e+01	1.190000e+01	
73	1.500631e-08	0.000000e+00	1.210000e+01	1.190000e+01	
74	1.501000e-08	0.000000e+00	1.210000e+01	1.190000e+01	
75	1.501388e-08	0.000000e+00	1.210000e+01	1.190000e+01	
76	1.501985e-08	0.000000e+00	1.210000e+01	1.190000e+01	
77	1.502758e-08	0.000000e+00	1.210000e+01	1.190000e+01	
78	1.504304e-08	0.000000e+00	1.210000e+01	1.190000e+01	
79	1.507318e-08	0.000000e+00	1.210000e+01	1.190000e+01	
80	1.513347e-08	0.000000e+00	1.210000e+01	1.190000e+01	
81	1.525405e-08	0.000000e+00	1.210000e+01	1.190000e+01	
82	1.542503e-08	0.000000e+00	1.210000e+01	1.190000e+01	
83	1.572098e-08	0.000000e+00	1.210000e+01	1.190000e+01	
84	1.610812e-08	0.000000e+00	1.210000e+01	1.190000e+01	
85	1.669140e-08	0.000000e+00	1.210000e+01	1.190000e+01	
86	1.739918e-08	0.000000e+00	1.210000e+01	1.190000e+01	
87	1.856199e-08	0.000000e+00	1.210000e+01	1.190000e+01	
88	2.075221e-08	0.000000e+00	1.210000e+01	1.190000e+01	
89	2.513265e-08	0.000000e+00	1.210000e+01	1.190000e+01	
90	3.000000e-08	0.000000e+00	1.210000e+01	1.190000e+01	
91	3.000001e-08	1.537500e-01	1.210000e+01	1.190000e+01	
92	3.000004e-08	4.612500e-01	1.210000e+01	1.190000e+01	
93	3.000009e-08	1.076250e+00	1.210000e+01	1.190000e+01	
94	3.000019e-08	2.306250e+00	1.210000e+01	1.190000e+01	
95	3.000030e-08	3.678056e+00	1.210000e+01	1.190000e+01	
96	3.000041e-08	5.089302e+00	1.210000e+01	1.190000e+01	
97	3.000063e-08	7.752070e+00	1.210000e+01	1.190000e+01	
98	3.000066e-08	8.148432e+00	1.210000e+01	1.190000e+01	
99	3.000073e-08	8.941158e+00	1.210000e+01	1.190000e+01	
100	3.000086e-08	1.052661e+01	1.210000e+01	1.190000e+01	
101	3.000100e-08	1.230000e+01	1.210000e+01	1.190000e+01	
102	3.000100e-08	1.230000e+01	1.207048e+01	1.190000e+01	
103	3.000101e-08	1.230000e+01	1.201144e+01	1.190000e+01	
104	3.000102e-08	1.230000e+01	1.189335e+01	1.190000e+01	
105	3.000103e-08	1.230000e+01	1.177194e+01	1.190000e+01	
106	3.000104e-08	1.230000e+01	1.163266e+01	1.190000e+01	
107	3.000106e-08	1.230000e+01	1.135412e+01	1.190000e+01	
108	3.000111e-08	1.230000e+01	1.079702e+01	1.190000e+01	
109	3.000119e-08	1.230000e+01	9.752981e+00	1.190000e+01	
110	3.000128e-08	1.230000e+01	8.756910e+00	1.190000e+01	
111	3.000129e-08	1.230000e+01	8.576115e+00	1.190000e+01	
112	3.000132e-08	1.230000e+01	8.214526e+00	1.190000e+01	
113	3.000138e-08	1.230000e+01	7.491347e+00	1.190000e+01	
114	3.000150e-08	1.230000e+01	6.044988e+00	1.190000e+01	
115	3.000174e-08	1.230000e+01	3.152272e+00	1.190000e+01	
116	3.000200e-08	1.230000e+01	0.000000e+00	1.190000e+01	
117	3.000201e-08	1.230000e+01	0.000000e+00	1.190000e+01	
118	3.000202e-08	1.230000e+01	0.000000e+00	1.190000e+01	
119	3.000202e-08	1.230000e+01	0.000000e+00	1.190000e+01	
120	3.000203e-08	1.230000e+01	0.000000e+00	1.190000e+01	
121	3.000204e-08	1.230000e+01	0.000000e+00	1.190000e+01	
122	3.000206e-08	1.230000e+01	0.000000e+00	1.190000e+01	
123	3.000210e-08	1.230000e+01	0.000000e+00	1.190000e+01	
124	3.000219e-08	1.230000e+01	0.000000e+00	1.190000e+01	
125	3.000229e-08	1.230000e+01	0.000000e+00	1.190000e+01	
126	3.000242e-08	1.230000e+01	0.000000e+00	1.190000e+01	
127	3.000260e-08	1.230000e+01	0.000000e+00	1.190000e+01	
128	3.000277e-08	1.230000e+01	0.000000e+00	1.190000e+01	
129	3.000312e-08	1.230000e+01	0.000000e+00	1.190000e+01	
130	3.000381e-08	1.230000e+01	0.000000e+00	1.190000e+01	
131	3.000519e-08	1.230000e+01	0.000000e+00	1.190000e+01	
132	3.000795e-08	1.230000e+01	0.000000e+00	1.190000e+01	
133	3.001099e-08	1.230000e+01	0.000000e+00	1.190000e+01	
134	3.001609e-08	1.230000e+01	0.000000e+00	1.190000e+01	
135	3.002515e-08	1.230000e+01	0.000000e+00	1.190000e+01	
136	3.004328e-08	1.230000e+01	0.000000e+00	1.190000e+01	
137	3.007952e-08	1.230000e+01	0.000000e+00	1.190000e+01	
138	3.015202e-08	1.230000e+01	0.000000e+00	1.190000e+01	
139	3.029700e-08	1.230000e+01	0.000000e+00	1.190000e+01	
140	3.058697e-08	1.230000e+01	0.000000e+00	1.190000e+01	
141	3.093640e-08	1.230000e+01	0.000000e+00	1.190000e+01	
142	3.143689e-08	1.230000e+01	0.000000e+00	1.190000e+01	
143	3.220973e-08	1.230000e+01	0.000000e+00	1.190000e+01	
144	3.375540e-08	1.230000e+01	0.000000e+00	1.190000e+01	
145	3.684674e-08	1.230000e+01	0.000000e+00	1.190000e+01	
146	4.184674e-08	1.230000e+01	0.000000e+00	1.190000e+01	
147	4.500100e-08	1.230000e+01	0.000000e+00	1.190000e+01	
148	4.500101e-08	1.214625e+01	0.000000e+00	1.190000e+01	
149	4.500104e-08	1.183875e+01	0.000000e+00	1.190000e+01	
150	4.500108e-08	1.135206e+01	0.000000e+00	1.190000e+01	
151	4.500112e-08	1.086774e+01	0.000000e+00	1.190000e+01	
152	4.500120e-08	9.899105e+00	0.000000e+00	1.190000e+01	
153	4.500129e-08	8.763820e+00	0.000000e+00	1.190000e+01	
154	4.500143e-08	6.952066e+00	0.000000e+00	1.190000e+01	
155	4.500171e-08	3.556554e+00	0.000000e+00	1.190000e+01	
156	4.500175e-08	3.111985e+00	0.000000e+00	1.190000e+01	
157	4.500182e-08	2.222846e+00	0.000000e+00	1.190000e+01	
158	4.500196e-08	4.445693e-01	0.000000e+00	1.190000e+01	
159	4.500200e-08	1.279987e-11	0.000000e+00	1.190000e+01	
160	4.500200e-08	0.000000e+00	0.000000e+00	1.190000e+01	
161	4.500200e-08	0.000000e+00	0.000000e+00	1.190000e+01	
162	4.500201e-08	0.000000e+00	0.000000e+00	1.190000e+01	
163	4.500202e-08	0.000000e+00	0.000000e+00	1.190000e+01	
164	4.500203e-08	0.000000e+00	0.000000e+00	1.190000e+01	
165	4.500205e-08	0.000000e+00	0.000000e+00	1.190000e+01	
166	4.500208e-08	0.000000e+00	0.000000e+00	1.190000e+01	
167	4.500214e-08	0.000000e+00	0.000000e+00	1.190000e+01	
168	4.500225e-08	0.000000e+00	0.000000e+00	1.190000e+01	
169	4.500244e-08	0.000000e+00	0.000000e+00	1.190000e+01	
170	4.500273e-08	0.000000e+00	0.000000e+00	1.190000e+01	
171	4.500303e-08	0.000000e+00	0.000000e+00	1.190000e+01	
172	4.500362e-08	0.000000e+00	0.000000e+00	1.190000e+01	
173	4.500425e-08	0.000000e+00	0.000000e+00	1.190000e+01	
174	4.500549e-08	0.000000e+00	0.000000e+00	1.190000e+01	
175	4.500799e-08	0.000000e+00	0.000000e+00	1.190000e+01	
176	4.501204e-08	0.000000e+00	0.000000e+00	1.190000e+01	
177	4.501681e-08	0.000000e+00	0.000000e+00	1.190000e+01	
178	4.502383e-08	0.000000e+00	0.000000e+00	1.190000e+01	
179	4.503240e-08	0.000000e+00	0.000000e+00	1.190000e+01	
180	4.504955e-08	0.000000e+00	0.000000e+00	1.190000e+01	
181	4.508386e-08	0.000000e+00	0.000000e+00	1.190000e+01	
182	4.515246e-08	0.000000e+00	0.000000e+00	1.190000e+01	
183	4.528966e-08	0.000000e+00	0.000000e+00	1.190000e+01	
184	4.549461e-08	0.000000e+00	0.000000e+00	1.190000e+01	
185	4.576649e-08	0.000000e+00	0.000000e+00	1.190000e+01	
186	4.629757e-08	0.000000e+00	0.000000e+00	1.190000e+01	
187	4.684534e-08	0.000000e+00	0.000000e+00	1.190000e+01	
188	4.794089e-08	0.000000e+00	0.000000e+00	1.190000e+01	
189	4.928734e-08	0.000000e+00	0.000000e+00	1.190000e+01	
190	5.082439e-08	0.000000e+00	0.000000e+00	1.190000e+01	
191	5.294736e-08	0.000000e+00	0.000000e+00	1.190000e+01	
192	5.614352e-08	0.000000e+00	0.000000e+00	1.190000e+01	
193	6.000000e-08	0.000000e+00	0.000000e+00	1.190000e+01	
194	6.000001e-08	1.537500e-01	1.512500e-01	1.190000e+01	
195	6.000004e-08	4.612500e-01	4.537500e-01	1.190000e+01	
196	6.000009e-08	1.076250e+00	1.058750e+00	1.190000e+01	
197	6.000019e-08	2.306250e+00	2.268750e+00	1.190000e+01	
198	6.000030e-08	3.673201e+00	3.613474e+00	1.190000e+01	
199	6.000040e-08	4.936289e+00	4.856024e+00	1.190000e+01	
200	6.000061e-08	7.462466e+00	7.341125e+00	1.190000e+01	
201	6.000082e-08	1.009243e+01	9.928325e+00	1.190000e+01	
202	6.000084e-08	1.036838e+01	1.019978e+01	1.190000e+01	
203	6.000089e-08	1.092027e+01	1.074270e+01	1.190000e+01	
204	6.000098e-08	1.202405e+01	1.182854e+01	1.190000e+01	
205	6.000100e-08	1.230000e+01	1.210000e+01	1.190000e+01	
206	6.000100e-08	1.230000e+01	1.210000e+01	1.188776e+01	
207	6.000100e-08	1.230000e+01	1.210000e+01	1.186328e+01	
208	6.000101e-08	1.230000e+01	1.210000e+01	1.181433e+01	
209	6.000102e-08	1.230000e+01	1.210000e+01	1.171642e+01	
210	6.000102e-08	1.230000e+01	1.210000e+01	1.161276e+01	
211	6.000104e-08	1.230000e+01	1.210000e+01	1.140545e+01	
212	6.000106e-08	1.230000e+01	1.210000e+01	1.115969e+01	
213	6.000110e-08	1.230000e+01	1.210000e+01	1.066817e+01	
214	6.000119e-08	1.230000e+01	1.210000e+01	9.685127e+00	
215	6.000131e-08	1.230000e+01	1.210000e+01	8.196496e+00	
216	6.000148e-08	1.230000e+01	1.210000e+01	6.241799e+00	
217	6.000151e-08	1.230000e+01	1.210000e+01	5.803017e+00	
218	6.000159e-08	1.230000e+01	1.210000e+01	4.925452e+00	
219	6.000173e-08	1.230000e+01	1.210000e+01	3.170322e+00	
220	6.000200e-08	1.230000e+01	1.210000e+01	0.000000e+00	
221	6.000201e-08	1.230000e+01	1.210000e+01	0.000000e+00	
222	6.000202e-08	1.230000e+01	1.210000e+01	0.000000e+00	
223	6.000205e-08	1.230000e+01	1.210000e+01	0.000000e+00	
224	6.000208e-08	1.230000e+01	1.210000e+01	0.000000e+00	
225	6.000212e-08	1.230000e+01	1.210000e+01	0.000000e+00	
226	6.000220e-08	1.230000e+01	1.210000e+01	0.000000e+00	
227	6.000228e-08	1.230000e+01	1.210000e+01	0.000000e+00	
228	6.000241e-08	1.230000e+01	1.210000e+01	0.000000e+00	
229	6.000258e-08	1.230000e+01	1.210000e+01	0.000000e+00	
230	6.000273e-08	1.230000e+01	1.210000e+01	0.000000e+00	
231	6.000303e-08	1.230000e+01	1.210000e+01	0.000000e+00	
232	6.000362e-08	1.230000e+01	1.210000e+01	0.000000e+00	
233	6.000482e-08	1.230000e+01	1.210000e+01	0.000000e+00	
234	6.000720e-08	1.230000e+01	1.210000e+01	0.000000e+00	
235	6.001069e-08	1.230000e+01	1.210000e+01	0.000000e+00	
236	6.001545e-08	1.230000e+01	1.210000e+01	0.000000e+00	
237	6.002392e-08	1.230000e+01	1.210000e+01	0.000000e+00	
238	6.004087e-08	1.230000e+01	1.210000e+01	0.000000e+00	
239	6.007146e-08	1.230000e+01	1.210000e+01	0.000000e+00	
240	6.013263e-08	1.230000e+01	1.210000e+01	0.000000e+00	
241	6.024739e-08	1.230000e+01	1.210000e+01	0.000000e+00	
242	6.037336e-08	1.230000e+01	1.210000e+01	0.000000e+00	
243	6.055120e-08	1.230000e+01	1.210000e+01	0.000000e+00	
244	6.090330e-08	1.230000e+01	1.210000e+01	0.000000e+00	
245	6.128971e-08	1.230000e+01	1.210000e+01	0.000000e+00	
246	6.197012e-08	1.230000e+01	1.210000e+01	0.000000e+00	
247	6.306806e-08	1.230000e+01	1.210000e+01	0.000000e+00	
248	6.526393e-08	1.230000e+01	1.210000e+01	0.000000e+00	
249	6.965568e-08	1.230000e+01	1.210000e+01	0.000000e+00	
250	7.465568e-08	1.230000e+01	1.210000e+01	0.000000e+00	
251	7.500100e-08	1.230000e+01	1.210000e+01	0.000000e+00	
252	7.500101e-08	1.214625e+01	1.210000e+01	0.000000e+00	
253	7.500104e-08	1.183875e+01	1.210000e+01	0.000000e+00	
254	7.500109e-08	1.122375e+01	1.210000e+01	0.000000e+00	
255	7.500114e-08	1.060969e+01	1.210000e+01	0.000000e+00	
256	7.500122e-08	9.597609e+00	1.210000e+01	0.000000e+00	
257	7.500132e-08	8.324552e+00	1.210000e+01	0.000000e+00	
258	7.500147e-08	6.525532e+00	1.210000e+01	0.000000e+00	
259	7.500176e-08	2.927490e+00	1.210000e+01	0.000000e+00	
260	7.500200e-08	0.000000e+00	1.210000e+01	0.000000e+00	
261	7.500200e-08	0.000000e+00	1.210000e+01	0.000000e+00	
262	7.500201e-08	0.000000e+00	1.210000e+01	0.000000e+00	
263	7.500203e-08	0.000000e+00	1.210000e+01	0.000000e+00	
264	7.500205e-08	0.000000e+00	1.210000e+01	0.000000e+00	
265	7.500208e-08	0.000000e+00	1.210000e+01	0.000000e+00	
266	7.500212e-08	0.000000e+00	1.210000e+01	0.000000e+00	
267	7.500222e-08	0.000000e+00	1.210000e+01	0.000000e+00	
268	7.500239e-08	0.000000e+00	1.210000e+01	0.000000e+00	
269	7.500271e-08	0.000000e+00	1.210000e+01	0.000000e+00	
270	7.500308e-08	0.000000e+00	1.210000e+01	0.000000e+00	
271	7.500363e-08	0.000000e+00	1.210000e+01	0.000000e+00	
272	7.500418e-08	0.000000e+00	1.210000e+01	0.000000e+00	
273	7.500528e-08	0.000000e+00	1.210000e+01	0.000000e+00	
274	7.500730e-08	0.000000e+00	1.210000e+01	0.000000e+00	
275	7.501081e-08	0.000000e+00	1.210000e+01	0.000000e+00	
276	7.501545e-08	0.000000e+00	1.210000e+01	0.000000e+00	
277	7.502181e-08	0.000000e+00	1.210000e+01	0.000000e+00	
278	7.503128e-08	0.000000e+00	1.210000e+01	0.000000e+00	
279	7.504952e-08	0.000000e+00	1.210000e+01	0.000000e+00	
280	7.508602e-08	0.000000e+00	1.210000e+01	0.000000e+00	
281	7.515900e-08	0.000000e+00	1.210000e+01	0.000000e+00	
282	7.530498e-08	0.000000e+00	1.210000e+01	0.000000e+00	
283	7.549860e-08	0.000000e+00	1.210000e+01	0.000000e+00	
284	7.582830e-08	0.000000e+00	1.210000e+01	0.000000e+00	
285	7.626144e-08	0.000000e+00	1.210000e+01	0.000000e+00	
286	7.688879e-08	0.000000e+00	1.210000e+01	0.000000e+00	
287	7.768183e-08	0.000000e+00	1.210000e+01	0.000000e+00	
288	7.895156e-08	0.000000e+00	1.210000e+01	0.000000e+00	
289	8.103838e-08	0.000000e+00	1.210000e+01	0.000000e+00	
290	8.521201e-08	0.000000e+00	1.210000e+01	0.000000e+00	
291	9.000000e-08	0.000000e+00	1.210000e+01	0.000000e+00	
292	9.000001e-08	1.537500e-01	1.210000e+01	0.000000e+00	
293	9.000004e-08	4.612500e-01	1.210000e+01	0.000000e+00	
294	9.000009e-08	1.076250e+00	1.210000e+01	0.000000e+00	
295	9.000019e-08	2.306250e+00	1.210000e+01	0.000000e+00	
296	9.000030e-08	3.678347e+00	1.210000e+01	0.000000e+00	
297	9.000041e-08	4.985877e+00	1.210000e+01	0.000000e+00	
298	9.000058e-08	7.101412e+00	1.210000e+01	0.000000e+00	
299	9.000076e-08	9.403865e+00	1.210000e+01	0.000000e+00	
300	9.000100e-08	1.230000e+01	1.210000e+01	0.000000e+00	
301	9.000100e-08	1.230000e+01	1.206041e+01	0.000000e+00	
302	9.000101e-08	1.230000e+01	1.198124e+01	0.000000e+00	
303	9.000102e-08	1.230000e+01	1.182289e+01	0.000000e+00	
304	9.000104e-08	1.230000e+01	1.165101e+01	0.000000e+00	
305	9.000105e-08	1.230000e+01	1.146404e+01	0.000000e+00	
306	9.000108e-08	1.230000e+01	1.109011e+01	0.000000e+00	
307	9.000115e-08	1.230000e+01	1.034224e+01	0.000000e+00	
308	9.000121e-08	1.230000e+01	9.525901e+00	0.000000e+00	
309	9.000128e-08	1.230000e+01	8.741096e+00	0.000000e+00	
310	9.000138e-08	1.230000e+01	7.486414e+00	0.000000e+00	
311	9.000149e-08	1.230000e+01	6.149533e+00	0.000000e+00	
312	9.000171e-08	1.230000e+01	3.475772e+00	0.000000e+00	
313	9.000174e-08	1.230000e+01	3.147827e+00	0.000000e+00	
314	9.000179e-08	1.230000e+01	2.491938e+00	0.000000e+00	
315	9.000190e-08	1.230000e+01	1.180159e+00	0.000000e+00	
316	9.000200e-08	1.230000e+01	5.262729e-11	0.000000e+00	
317	9.000200e-08	1.230000e+01	0.000000e+00	0.000000e+00	
318	9.000201e-08	1.230000e+01	0.000000e+00	0.000000e+00	
319	9.000202e-08	1.230000e+01	0.000000e+00	0.000000e+00	
320	9.000204e-08	1.230000e+01	0.000000e+00	0.000000e+00	
321	9.000206e-08	1.230000e+01	0.000000e+00	0.000000e+00	
322	9.000209e-08	1.230000e+01	0.000000e+00	0.000000e+00	
323	9.000217e-08	1.230000e+01	0.000000e+00	0.000000e+00	
324	9.000226e-08	1.230000e+01	0.000000e+00	0.000000e+00	
325	9.000236e-08	1.230000e+01	0.000000e+00	0.000000e+00	
326	9.000247e-08	1.230000e+01	0.000000e+00	0.000000e+00	
327	9.000260e-08	1.230000e+01	0.000000e+00	0.000000e+00	
328	9.000286e-08	1.230000e+01	0.000000e+00	0.000000e+00	
329	9.000338e-08	1.230000e+01	0.000000e+00	0.000000e+00	
330	9.000443e-08	1.230000e+01	0.000000e+00	0.000000e+00	
331	9.000622e-08	1.230000e+01	0.000000e+00	0.000000e+00	
332	9.000959e-08	1.230000e+01	0.000000e+00	0.000000e+00	
333	9.001360e-08	1.230000e+01	0.000000e+00	0.000000e+00	
334	9.002161e-08	1.230000e+01	0.000000e+00	0.000000e+00	
335	9.003765e-08	1.230000e+01	0.000000e+00	0.000000e+00	
336	9.005995e-08	1.230000e+01	0.000000e+00	0.000000e+00	
337	9.010457e-08	1.230000e+01	0.000000e+00	0.000000e+00	
338	9.019380e-08	1.230000e+01	0.000000e+00	0.000000e+00	
339	9.029204e-08	1.230000e+01	0.000000e+00	0.000000e+00	
340	9.046342e-08	1.230000e+01	0.000000e+00	0.000000e+00	
