
Circuit: Titulo: Circuito Inversor c/ transistor MOS

Warning: Pd = 0 is less than W.
Warning: Ps = 0 is less than W.
Warning: Pd = 0 is less than W.
Warning: Ps = 0 is less than W.
Circuit: Titulo: Circuito Inversor c/ transistor MOS
Date: Mon Sep 06 11:58:23  2010


                  Titulo: Circuito Inversor c/ transistor MOS
                  Transient Analysis  Mon Sep 06 11:58:23  2010
--------------------------------------------------------------------------------
Index   time            v(2)            v(3)            
--------------------------------------------------------------------------------
0	0.000000e+00	0.000000e+00	5.000000e+00	
1	1.000000e-14	5.000000e-02	5.045896e+00	
2	2.000000e-14	1.000000e-01	5.091526e+00	
3	4.000000e-14	2.000000e-01	5.182467e+00	
4	8.000000e-14	4.000000e-01	5.362270e+00	
5	1.600000e-13	8.000000e-01	5.717649e+00	
6	1.800000e-13	9.000000e-01	5.801246e+00	
7	2.200000e-13	1.100000e+00	5.930224e+00	
8	3.000000e-13	1.500000e+00	6.082763e+00	
9	4.420673e-13	2.210337e+00	6.224994e+00	
10	6.282035e-13	3.141018e+00	6.285098e+00	
11	1.000000e-12	5.000000e+00	6.307396e+00	
12	1.012522e-12	5.000000e+00	6.258602e+00	
13	1.037567e-12	5.000000e+00	6.171437e+00	
14	1.043828e-12	5.000000e+00	6.153169e+00	
15	1.056350e-12	5.000000e+00	6.118012e+00	
16	1.081394e-12	5.000000e+00	6.055312e+00	
17	1.131483e-12	5.000000e+00	5.955217e+00	
18	1.231660e-12	5.000000e+00	5.826650e+00	
19	1.432015e-12	5.000000e+00	5.709753e+00	
20	1.649379e-12	5.000000e+00	5.667738e+00	
21	2.037609e-12	5.000000e+00	5.630056e+00	
22	2.697432e-12	5.000000e+00	5.576916e+00	
23	4.017077e-12	5.000000e+00	5.430420e+00	
24	6.656367e-12	5.000000e+00	5.059698e+00	
25	9.858897e-12	5.000000e+00	4.558830e+00	
26	1.391523e-11	5.000000e+00	3.913478e+00	
27	1.786492e-11	5.000000e+00	3.288250e+00	
28	2.576430e-11	5.000000e+00	2.481787e+00	
29	4.156306e-11	5.000000e+00	2.167933e+00	
30	6.918984e-11	5.000000e+00	1.850226e+00	
31	9.677614e-11	5.000000e+00	1.611432e+00	
32	1.519488e-10	5.000000e+00	1.258333e+00	
33	2.622940e-10	5.000000e+00	7.810109e-01	
34	4.829844e-10	5.000000e+00	2.963725e-01	
35	8.309424e-10	5.000000e+00	4.659211e-02	
36	1.196651e-09	5.000000e+00	7.562962e-03	
37	1.702667e-09	5.000000e+00	-1.566811e-03	
38	2.437948e-09	5.000000e+00	1.397951e-03	
39	3.437948e-09	5.000000e+00	-1.366355e-03	
40	4.437948e-09	5.000000e+00	1.353296e-03	
41	5.437948e-09	5.000000e+00	-1.347332e-03	
42	6.437948e-09	5.000000e+00	1.343845e-03	
43	7.437948e-09	5.000000e+00	-1.341315e-03	
44	8.437948e-09	5.000000e+00	1.339124e-03	
45	9.437948e-09	5.000000e+00	-1.337069e-03	
46	1.000100e-08	5.000000e+00	1.333560e-03	
47	1.000110e-08	4.500000e+00	-3.932713e-01	
48	1.000112e-08	4.375000e+00	-4.960567e-01	
49	1.000117e-08	4.125000e+00	-7.047553e-01	
50	1.000127e-08	3.625000e+00	-9.169715e-01	
51	1.000144e-08	2.801618e+00	-9.969167e-01	
52	1.000163e-08	1.825288e+00	-1.041897e+00	
53	1.000191e-08	4.657729e-01	-1.039646e+00	
54	1.000200e-08	0.000000e+00	-1.048053e+00	
55	1.000200e-08	0.000000e+00	-1.035133e+00	
56	1.000201e-08	0.000000e+00	-1.012909e+00	
57	1.000202e-08	0.000000e+00	-9.806616e-01	
58	1.000205e-08	0.000000e+00	-9.324735e-01	
59	1.000207e-08	0.000000e+00	-8.924503e-01	
60	1.000213e-08	0.000000e+00	-8.337082e-01	
61	1.000222e-08	0.000000e+00	-7.689535e-01	
62	1.000240e-08	0.000000e+00	-7.049849e-01	
63	1.000276e-08	0.000000e+00	-6.646881e-01	
64	1.000332e-08	0.000000e+00	-6.411744e-01	
65	1.000444e-08	0.000000e+00	-6.079949e-01	
66	1.000581e-08	0.000000e+00	-5.744428e-01	
67	1.000854e-08	0.000000e+00	-4.747550e-01	
68	1.001256e-08	0.000000e+00	-2.794753e-01	
69	1.001783e-08	0.000000e+00	1.927690e-03	
70	1.002507e-08	0.000000e+00	3.970700e-01	
71	1.003687e-08	0.000000e+00	1.040433e+00	
72	1.005068e-08	0.000000e+00	1.722787e+00	
73	1.007829e-08	0.000000e+00	2.068524e+00	
74	1.011528e-08	0.000000e+00	2.319866e+00	
75	1.015145e-08	0.000000e+00	2.518040e+00	
76	1.022379e-08	0.000000e+00	2.821095e+00	
77	1.036847e-08	0.000000e+00	3.286796e+00	
78	1.065782e-08	0.000000e+00	3.896013e+00	
79	1.123653e-08	0.000000e+00	4.555707e+00	
80	1.223653e-08	0.000000e+00	4.929310e+00	
81	1.323653e-08	0.000000e+00	4.993009e+00	
82	1.423653e-08	0.000000e+00	4.996069e+00	
83	1.523653e-08	0.000000e+00	5.002485e+00	
84	1.623653e-08	0.000000e+00	4.997371e+00	
85	1.723653e-08	0.000000e+00	5.002631e+00	
86	1.823653e-08	0.000000e+00	4.997395e+00	
87	1.923653e-08	0.000000e+00	5.002628e+00	
88	2.000000e-08	0.000000e+00	4.997403e+00	
89	2.000010e-08	5.000000e-01	5.441756e+00	
90	2.000030e-08	1.500000e+00	6.050603e+00	
91	2.000048e-08	2.411592e+00	6.239193e+00	
92	2.000073e-08	3.633051e+00	6.299017e+00	
93	2.000100e-08	5.000000e+00	6.303695e+00	
94	2.000101e-08	5.000000e+00	6.259979e+00	
95	2.000103e-08	5.000000e+00	6.181109e+00	
96	2.000108e-08	5.000000e+00	6.058666e+00	
97	2.000115e-08	5.000000e+00	5.929321e+00	
98	2.000122e-08	5.000000e+00	5.842317e+00	
99	2.000135e-08	5.000000e+00	5.743056e+00	
100	2.000158e-08	5.000000e+00	5.676639e+00	
101	2.000194e-08	5.000000e+00	5.638124e+00	
102	2.000252e-08	5.000000e+00	5.591981e+00	
103	2.000369e-08	5.000000e+00	5.469431e+00	
104	2.000602e-08	5.000000e+00	5.153078e+00	
105	2.000941e-08	5.000000e+00	4.628891e+00	
106	2.001283e-08	5.000000e+00	4.084522e+00	
107	2.001724e-08	5.000000e+00	3.385824e+00	
108	2.002605e-08	5.000000e+00	2.473162e+00	
109	2.004281e-08	5.000000e+00	2.150406e+00	
110	2.006090e-08	5.000000e+00	1.935403e+00	
111	2.008226e-08	5.000000e+00	1.728963e+00	
112	2.012496e-08	5.000000e+00	1.417017e+00	
113	2.021038e-08	5.000000e+00	9.742964e-01	
114	2.038120e-08	5.000000e+00	4.687025e-01	
115	2.072078e-08	5.000000e+00	8.244999e-02	
116	2.105453e-08	5.000000e+00	1.616286e-02	
117	2.152726e-08	5.000000e+00	-1.401462e-03	
118	2.211615e-08	5.000000e+00	1.409001e-03	
119	2.311615e-08	5.000000e+00	-1.408006e-03	
120	2.411615e-08	5.000000e+00	1.406536e-03	
121	2.511615e-08	5.000000e+00	-1.404847e-03	
122	2.611615e-08	5.000000e+00	1.403131e-03	
123	2.711615e-08	5.000000e+00	-1.401363e-03	
124	2.811615e-08	5.000000e+00	1.399629e-03	
125	2.911615e-08	5.000000e+00	-1.397865e-03	
126	3.000100e-08	5.000000e+00	1.395922e-03	
127	3.000110e-08	4.500000e+00	-3.932514e-01	
128	3.000112e-08	4.375000e+00	-4.960458e-01	
129	3.000117e-08	4.125000e+00	-7.047584e-01	
130	3.000127e-08	3.625000e+00	-9.169642e-01	
131	3.000144e-08	2.801620e+00	-9.969110e-01	
132	3.000163e-08	1.825343e+00	-1.041898e+00	
133	3.000191e-08	4.656901e-01	-1.039644e+00	
134	3.000200e-08	5.203200e-12	-1.048055e+00	
135	3.000200e-08	0.000000e+00	-1.035136e+00	
136	3.000201e-08	0.000000e+00	-1.012914e+00	
137	3.000202e-08	0.000000e+00	-9.806692e-01	
138	3.000205e-08	0.000000e+00	-9.324856e-01	
139	3.000207e-08	0.000000e+00	-8.924637e-01	
140	3.000213e-08	0.000000e+00	-8.337207e-01	
141	3.000222e-08	0.000000e+00	-7.689673e-01	
142	3.000240e-08	0.000000e+00	-7.049953e-01	
143	3.000276e-08	0.000000e+00	-6.646859e-01	
144	3.000332e-08	0.000000e+00	-6.411822e-01	
145	3.000444e-08	0.000000e+00	-6.080114e-01	
146	3.000581e-08	0.000000e+00	-5.744614e-01	
147	3.000853e-08	0.000000e+00	-4.748094e-01	
148	3.001256e-08	0.000000e+00	-2.795396e-01	
149	3.001783e-08	0.000000e+00	1.808950e-03	
150	3.002506e-08	0.000000e+00	3.969255e-01	
151	3.003687e-08	0.000000e+00	1.040125e+00	
152	3.005067e-08	0.000000e+00	1.722549e+00	
153	3.007827e-08	0.000000e+00	2.068370e+00	
154	3.011523e-08	0.000000e+00	2.319554e+00	
155	3.015140e-08	0.000000e+00	2.517769e+00	
156	3.022373e-08	0.000000e+00	2.820853e+00	
157	3.036839e-08	0.000000e+00	3.286586e+00	
158	3.065771e-08	0.000000e+00	3.895828e+00	
159	3.123636e-08	0.000000e+00	4.555585e+00	
160	3.223636e-08	0.000000e+00	4.929287e+00	
161	3.323636e-08	0.000000e+00	4.993008e+00	
162	3.423636e-08	0.000000e+00	4.996066e+00	
163	3.523636e-08	0.000000e+00	5.002487e+00	
164	3.623636e-08	0.000000e+00	4.997369e+00	
165	3.723636e-08	0.000000e+00	5.002633e+00	
166	3.823636e-08	0.000000e+00	4.997393e+00	
167	3.923636e-08	0.000000e+00	5.002630e+00	
168	4.000000e-08	0.000000e+00	4.997401e+00	
169	4.000010e-08	5.000000e-01	5.441754e+00	
170	4.000030e-08	1.500000e+00	6.050603e+00	
171	4.000048e-08	2.411592e+00	6.239193e+00	
172	4.000073e-08	3.633051e+00	6.299017e+00	
173	4.000100e-08	5.000000e+00	6.303695e+00	
174	4.000101e-08	5.000000e+00	6.259979e+00	
175	4.000103e-08	5.000000e+00	6.181109e+00	
176	4.000108e-08	5.000000e+00	6.058666e+00	
177	4.000115e-08	5.000000e+00	5.929321e+00	
178	4.000122e-08	5.000000e+00	5.842317e+00	
179	4.000135e-08	5.000000e+00	5.743056e+00	
180	4.000158e-08	5.000000e+00	5.676639e+00	
181	4.000194e-08	5.000000e+00	5.638124e+00	
182	4.000252e-08	5.000000e+00	5.591981e+00	
183	4.000369e-08	5.000000e+00	5.469431e+00	
184	4.000602e-08	5.000000e+00	5.153078e+00	
185	4.000941e-08	5.000000e+00	4.628891e+00	
186	4.001283e-08	5.000000e+00	4.084522e+00	
187	4.001724e-08	5.000000e+00	3.385824e+00	
188	4.002605e-08	5.000000e+00	2.473162e+00	
189	4.004281e-08	5.000000e+00	2.150406e+00	
190	4.006090e-08	5.000000e+00	1.935403e+00	
191	4.008226e-08	5.000000e+00	1.728963e+00	
192	4.012496e-08	5.000000e+00	1.417017e+00	
193	4.021038e-08	5.000000e+00	9.742964e-01	
194	4.038120e-08	5.000000e+00	4.687024e-01	
195	4.072078e-08	5.000000e+00	8.244998e-02	
196	4.105453e-08	5.000000e+00	1.616286e-02	
197	4.152726e-08	5.000000e+00	-1.401462e-03	
198	4.211615e-08	5.000000e+00	1.409001e-03	
199	4.311615e-08	5.000000e+00	-1.408006e-03	
200	4.411615e-08	5.000000e+00	1.406536e-03	
201	4.511615e-08	5.000000e+00	-1.404847e-03	
202	4.611615e-08	5.000000e+00	1.403131e-03	
203	4.711615e-08	5.000000e+00	-1.401363e-03	
204	4.811615e-08	5.000000e+00	1.399629e-03	
205	4.911615e-08	5.000000e+00	-1.397865e-03	
206	5.000000e-08	5.000000e+00	1.395919e-03	

elapsed time since last call: 0.000 seconds.

Total elapsed time: 0.000 seconds.

Current dynamic memory usage = 18759680,
Dynamic memory limit = 2147352576.

