
Circuit: Titulo: Circuito NOR4 c/ transistor MOS

Warning: Pd = 0 is less than W.
Warning: Ps = 0 is less than W.
Warning: Pd = 0 is less than W.
Warning: Ps = 0 is less than W.
Circuit: Titulo: Circuito NOR4 c/ transistor MOS
Date: Mon Sep 06 12:17:42  2010


                    Titulo: Circuito NOR4 c/ transistor MOS
                    Transient Analysis  Mon Sep 06 12:17:42  2010
--------------------------------------------------------------------------------
Index   time            v(2)            v(3)            v(4)            
--------------------------------------------------------------------------------
0	0.000000e+00	0.000000e+00	0.000000e+00	0.000000e+00	
1	1.000000e-14	1.230000e-01	1.210000e-01	1.190000e-01	
2	2.000000e-14	2.460000e-01	2.420000e-01	2.380000e-01	
3	4.000000e-14	4.920000e-01	4.840000e-01	4.760000e-01	
4	8.000000e-14	9.840000e-01	9.680000e-01	9.520000e-01	
5	1.600000e-13	1.968000e+00	1.936000e+00	1.904000e+00	
6	2.453593e-13	3.017919e+00	2.968847e+00	2.919775e+00	
7	3.499482e-13	4.304363e+00	4.234373e+00	4.164383e+00	
8	3.729710e-13	4.587543e+00	4.512949e+00	4.438355e+00	
9	4.190167e-13	5.153905e+00	5.070102e+00	4.986298e+00	
10	5.111080e-13	6.286628e+00	6.184406e+00	6.082185e+00	
11	6.952906e-13	8.552074e+00	8.413016e+00	8.273958e+00	
12	7.333792e-13	9.020565e+00	8.873889e+00	8.727213e+00	
13	8.095566e-13	9.957546e+00	9.795635e+00	9.633724e+00	
14	9.619113e-13	1.183151e+01	1.163913e+01	1.144674e+01	
15	1.000000e-12	1.230000e+01	1.210000e+01	1.190000e+01	
16	1.000978e-12	1.230000e+01	1.210000e+01	1.190000e+01	
17	1.002935e-12	1.230000e+01	1.210000e+01	1.190000e+01	
18	1.006849e-12	1.230000e+01	1.210000e+01	1.190000e+01	
19	1.012906e-12	1.230000e+01	1.210000e+01	1.190000e+01	
20	1.019353e-12	1.230000e+01	1.210000e+01	1.190000e+01	
21	1.032248e-12	1.230000e+01	1.210000e+01	1.190000e+01	
22	1.051056e-12	1.230000e+01	1.210000e+01	1.190000e+01	
23	1.088473e-12	1.230000e+01	1.210000e+01	1.190000e+01	
24	1.147055e-12	1.230000e+01	1.210000e+01	1.190000e+01	
25	1.262161e-12	1.230000e+01	1.210000e+01	1.190000e+01	
26	1.441757e-12	1.230000e+01	1.210000e+01	1.190000e+01	
27	1.766004e-12	1.230000e+01	1.210000e+01	1.190000e+01	
28	2.240047e-12	1.230000e+01	1.210000e+01	1.190000e+01	
29	2.982457e-12	1.230000e+01	1.210000e+01	1.190000e+01	
30	3.851681e-12	1.230000e+01	1.210000e+01	1.190000e+01	
31	5.279297e-12	1.230000e+01	1.210000e+01	1.190000e+01	
32	6.854942e-12	1.230000e+01	1.210000e+01	1.190000e+01	
33	9.126249e-12	1.230000e+01	1.210000e+01	1.190000e+01	
34	1.158804e-11	1.230000e+01	1.210000e+01	1.190000e+01	
35	1.217992e-11	1.230000e+01	1.210000e+01	1.190000e+01	
36	1.336369e-11	1.230000e+01	1.210000e+01	1.190000e+01	
37	1.573123e-11	1.230000e+01	1.210000e+01	1.190000e+01	
38	2.046630e-11	1.230000e+01	1.210000e+01	1.190000e+01	
39	2.993645e-11	1.230000e+01	1.210000e+01	1.190000e+01	
40	4.792586e-11	1.230000e+01	1.210000e+01	1.190000e+01	
41	8.390468e-11	1.230000e+01	1.210000e+01	1.190000e+01	
42	1.342139e-10	1.230000e+01	1.210000e+01	1.190000e+01	
43	2.348322e-10	1.230000e+01	1.210000e+01	1.190000e+01	
44	3.748957e-10	1.230000e+01	1.210000e+01	1.190000e+01	
45	5.810183e-10	1.230000e+01	1.210000e+01	1.190000e+01	
46	8.447645e-10	1.230000e+01	1.210000e+01	1.190000e+01	
47	1.204488e-09	1.230000e+01	1.210000e+01	1.190000e+01	
48	1.724501e-09	1.230000e+01	1.210000e+01	1.190000e+01	
49	2.734149e-09	1.230000e+01	1.210000e+01	1.190000e+01	
50	4.753445e-09	1.230000e+01	1.210000e+01	1.190000e+01	
51	8.250230e-09	1.230000e+01	1.210000e+01	1.190000e+01	
52	1.325023e-08	1.230000e+01	1.210000e+01	1.190000e+01	
53	1.500100e-08	1.230000e+01	1.210000e+01	1.190000e+01	
54	1.500101e-08	1.214625e+01	1.210000e+01	1.190000e+01	
55	1.500104e-08	1.183875e+01	1.210000e+01	1.190000e+01	
56	1.500109e-08	1.122375e+01	1.210000e+01	1.190000e+01	
57	1.500114e-08	1.060968e+01	1.210000e+01	1.190000e+01	
58	1.500124e-08	9.381554e+00	1.210000e+01	1.190000e+01	
59	1.500133e-08	8.192976e+00	1.210000e+01	1.190000e+01	
60	1.500153e-08	5.815821e+00	1.210000e+01	1.190000e+01	
61	1.500157e-08	5.288753e+00	1.210000e+01	1.190000e+01	
62	1.500166e-08	4.234617e+00	1.210000e+01	1.190000e+01	
63	1.500183e-08	2.126345e+00	1.210000e+01	1.190000e+01	
64	1.500200e-08	1.279987e-11	1.210000e+01	1.190000e+01	
65	1.500200e-08	0.000000e+00	1.210000e+01	1.190000e+01	
66	1.500201e-08	0.000000e+00	1.210000e+01	1.190000e+01	
67	1.500203e-08	0.000000e+00	1.210000e+01	1.190000e+01	
68	1.500204e-08	0.000000e+00	1.210000e+01	1.190000e+01	
69	1.500207e-08	0.000000e+00	1.210000e+01	1.190000e+01	
70	1.500211e-08	0.000000e+00	1.210000e+01	1.190000e+01	
71	1.500219e-08	0.000000e+00	1.210000e+01	1.190000e+01	
72	1.500234e-08	0.000000e+00	1.210000e+01	1.190000e+01	
73	1.500250e-08	0.000000e+00	1.210000e+01	1.190000e+01	
74	1.500267e-08	0.000000e+00	1.210000e+01	1.190000e+01	
75	1.500290e-08	0.000000e+00	1.210000e+01	1.190000e+01	
76	1.500336e-08	0.000000e+00	1.210000e+01	1.190000e+01	
77	1.500430e-08	0.000000e+00	1.210000e+01	1.190000e+01	
78	1.500616e-08	0.000000e+00	1.210000e+01	1.190000e+01	
79	1.500974e-08	0.000000e+00	1.210000e+01	1.190000e+01	
80	1.501356e-08	0.000000e+00	1.210000e+01	1.190000e+01	
81	1.501935e-08	0.000000e+00	1.210000e+01	1.190000e+01	
82	1.502689e-08	0.000000e+00	1.210000e+01	1.190000e+01	
83	1.504195e-08	0.000000e+00	1.210000e+01	1.190000e+01	
84	1.507007e-08	0.000000e+00	1.210000e+01	1.190000e+01	
85	1.512629e-08	0.000000e+00	1.210000e+01	1.190000e+01	
86	1.523874e-08	0.000000e+00	1.210000e+01	1.190000e+01	
87	1.540755e-08	0.000000e+00	1.210000e+01	1.190000e+01	
88	1.568740e-08	0.000000e+00	1.210000e+01	1.190000e+01	
89	1.606787e-08	0.000000e+00	1.210000e+01	1.190000e+01	
90	1.662759e-08	0.000000e+00	1.210000e+01	1.190000e+01	
91	1.732455e-08	0.000000e+00	1.210000e+01	1.190000e+01	
92	1.839526e-08	0.000000e+00	1.210000e+01	1.190000e+01	
93	2.021051e-08	0.000000e+00	1.210000e+01	1.190000e+01	
94	2.384101e-08	0.000000e+00	1.210000e+01	1.190000e+01	
95	2.884101e-08	0.000000e+00	1.210000e+01	1.190000e+01	
96	3.000000e-08	0.000000e+00	1.210000e+01	1.190000e+01	
97	3.000001e-08	1.537500e-01	1.210000e+01	1.190000e+01	
98	3.000004e-08	4.612500e-01	1.210000e+01	1.190000e+01	
99	3.000009e-08	1.076250e+00	1.210000e+01	1.190000e+01	
100	3.000019e-08	2.306250e+00	1.210000e+01	1.190000e+01	
101	3.000030e-08	3.677951e+00	1.210000e+01	1.190000e+01	
102	3.000041e-08	5.089972e+00	1.210000e+01	1.190000e+01	
103	3.000063e-08	7.772356e+00	1.210000e+01	1.190000e+01	
104	3.000066e-08	8.167307e+00	1.210000e+01	1.190000e+01	
105	3.000073e-08	8.957210e+00	1.210000e+01	1.190000e+01	
106	3.000086e-08	1.053702e+01	1.210000e+01	1.190000e+01	
107	3.000100e-08	1.230000e+01	1.210000e+01	1.190000e+01	
108	3.000100e-08	1.230000e+01	1.207052e+01	1.190000e+01	
109	3.000101e-08	1.230000e+01	1.201157e+01	1.190000e+01	
110	3.000102e-08	1.230000e+01	1.189367e+01	1.190000e+01	
111	3.000103e-08	1.230000e+01	1.177233e+01	1.190000e+01	
112	3.000104e-08	1.230000e+01	1.163320e+01	1.190000e+01	
113	3.000106e-08	1.230000e+01	1.135493e+01	1.190000e+01	
114	3.000111e-08	1.230000e+01	1.079840e+01	1.190000e+01	
115	3.000119e-08	1.230000e+01	9.750834e+00	1.190000e+01	
116	3.000128e-08	1.230000e+01	8.754879e+00	1.190000e+01	
117	3.000140e-08	1.230000e+01	7.307172e+00	1.190000e+01	
118	3.000152e-08	1.230000e+01	5.836114e+00	1.190000e+01	
119	3.000176e-08	1.230000e+01	2.893998e+00	1.190000e+01	
120	3.000200e-08	1.230000e+01	0.000000e+00	1.190000e+01	
121	3.000200e-08	1.230000e+01	0.000000e+00	1.190000e+01	
122	3.000201e-08	1.230000e+01	0.000000e+00	1.190000e+01	
123	3.000203e-08	1.230000e+01	0.000000e+00	1.190000e+01	
124	3.000206e-08	1.230000e+01	0.000000e+00	1.190000e+01	
125	3.000208e-08	1.230000e+01	0.000000e+00	1.190000e+01	
126	3.000214e-08	1.230000e+01	0.000000e+00	1.190000e+01	
127	3.000224e-08	1.230000e+01	0.000000e+00	1.190000e+01	
128	3.000234e-08	1.230000e+01	0.000000e+00	1.190000e+01	
129	3.000244e-08	1.230000e+01	0.000000e+00	1.190000e+01	
130	3.000259e-08	1.230000e+01	0.000000e+00	1.190000e+01	
131	3.000288e-08	1.230000e+01	0.000000e+00	1.190000e+01	
132	3.000348e-08	1.230000e+01	0.000000e+00	1.190000e+01	
133	3.000450e-08	1.230000e+01	0.000000e+00	1.190000e+01	
134	3.000644e-08	1.230000e+01	0.000000e+00	1.190000e+01	
135	3.000920e-08	1.230000e+01	0.000000e+00	1.190000e+01	
136	3.001276e-08	1.230000e+01	0.000000e+00	1.190000e+01	
137	3.001862e-08	1.230000e+01	0.000000e+00	1.190000e+01	
138	3.003032e-08	1.230000e+01	0.000000e+00	1.190000e+01	
139	3.005373e-08	1.230000e+01	0.000000e+00	1.190000e+01	
140	3.010055e-08	1.230000e+01	0.000000e+00	1.190000e+01	
141	3.019419e-08	1.230000e+01	0.000000e+00	1.190000e+01	
142	3.038146e-08	1.230000e+01	0.000000e+00	1.190000e+01	
143	3.075601e-08	1.230000e+01	0.000000e+00	1.190000e+01	
144	3.116894e-08	1.230000e+01	0.000000e+00	1.190000e+01	
145	3.186489e-08	1.230000e+01	0.000000e+00	1.190000e+01	
146	3.306192e-08	1.230000e+01	0.000000e+00	1.190000e+01	
147	3.545600e-08	1.230000e+01	0.000000e+00	1.190000e+01	
148	4.024414e-08	1.230000e+01	0.000000e+00	1.190000e+01	
149	4.500100e-08	1.230000e+01	0.000000e+00	1.190000e+01	
150	4.500101e-08	1.214625e+01	0.000000e+00	1.190000e+01	
151	4.500104e-08	1.183875e+01	0.000000e+00	1.190000e+01	
152	4.500108e-08	1.135208e+01	0.000000e+00	1.190000e+01	
153	4.500112e-08	1.086777e+01	0.000000e+00	1.190000e+01	
154	4.500120e-08	9.899168e+00	0.000000e+00	1.190000e+01	
155	4.500129e-08	8.761528e+00	0.000000e+00	1.190000e+01	
156	4.500143e-08	6.953802e+00	0.000000e+00	1.190000e+01	
157	4.500171e-08	3.554947e+00	0.000000e+00	1.190000e+01	
158	4.500175e-08	3.110578e+00	0.000000e+00	1.190000e+01	
159	4.500182e-08	2.221842e+00	0.000000e+00	1.190000e+01	
160	4.500196e-08	4.443683e-01	0.000000e+00	1.190000e+01	
161	4.500200e-08	1.279987e-11	0.000000e+00	1.190000e+01	
162	4.500200e-08	0.000000e+00	0.000000e+00	1.190000e+01	
163	4.500200e-08	0.000000e+00	0.000000e+00	1.190000e+01	
164	4.500201e-08	0.000000e+00	0.000000e+00	1.190000e+01	
165	4.500202e-08	0.000000e+00	0.000000e+00	1.190000e+01	
166	4.500203e-08	0.000000e+00	0.000000e+00	1.190000e+01	
167	4.500205e-08	0.000000e+00	0.000000e+00	1.190000e+01	
168	4.500208e-08	0.000000e+00	0.000000e+00	1.190000e+01	
169	4.500215e-08	0.000000e+00	0.000000e+00	1.190000e+01	
170	4.500226e-08	0.000000e+00	0.000000e+00	1.190000e+01	
171	4.500246e-08	0.000000e+00	0.000000e+00	1.190000e+01	
172	4.500275e-08	0.000000e+00	0.000000e+00	1.190000e+01	
173	4.500303e-08	0.000000e+00	0.000000e+00	1.190000e+01	
174	4.500339e-08	0.000000e+00	0.000000e+00	1.190000e+01	
175	4.500410e-08	0.000000e+00	0.000000e+00	1.190000e+01	
176	4.500551e-08	0.000000e+00	0.000000e+00	1.190000e+01	
177	4.500833e-08	0.000000e+00	0.000000e+00	1.190000e+01	
178	4.501215e-08	0.000000e+00	0.000000e+00	1.190000e+01	
179	4.501714e-08	0.000000e+00	0.000000e+00	1.190000e+01	
180	4.502401e-08	0.000000e+00	0.000000e+00	1.190000e+01	
181	4.503253e-08	0.000000e+00	0.000000e+00	1.190000e+01	
182	4.504959e-08	0.000000e+00	0.000000e+00	1.190000e+01	
183	4.508371e-08	0.000000e+00	0.000000e+00	1.190000e+01	
184	4.515194e-08	0.000000e+00	0.000000e+00	1.190000e+01	
185	4.528841e-08	0.000000e+00	0.000000e+00	1.190000e+01	
186	4.549537e-08	0.000000e+00	0.000000e+00	1.190000e+01	
187	4.576416e-08	0.000000e+00	0.000000e+00	1.190000e+01	
188	4.630124e-08	0.000000e+00	0.000000e+00	1.190000e+01	
189	4.684322e-08	0.000000e+00	0.000000e+00	1.190000e+01	
190	4.792720e-08	0.000000e+00	0.000000e+00	1.190000e+01	
191	4.928061e-08	0.000000e+00	0.000000e+00	1.190000e+01	
192	5.081056e-08	0.000000e+00	0.000000e+00	1.190000e+01	
193	5.293393e-08	0.000000e+00	0.000000e+00	1.190000e+01	
194	5.590427e-08	0.000000e+00	0.000000e+00	1.190000e+01	
195	6.000000e-08	0.000000e+00	0.000000e+00	1.190000e+01	
196	6.000001e-08	1.537500e-01	1.512500e-01	1.190000e+01	
197	6.000004e-08	4.612500e-01	4.537500e-01	1.190000e+01	
198	6.000009e-08	1.076250e+00	1.058750e+00	1.190000e+01	
199	6.000019e-08	2.306250e+00	2.268750e+00	1.190000e+01	
200	6.000030e-08	3.673626e+00	3.613893e+00	1.190000e+01	
201	6.000041e-08	5.070510e+00	4.988063e+00	1.190000e+01	
202	6.000064e-08	7.864279e+00	7.736404e+00	1.190000e+01	
203	6.000068e-08	8.325964e+00	8.190583e+00	1.190000e+01	
204	6.000075e-08	9.249336e+00	9.098940e+00	1.190000e+01	
205	6.000090e-08	1.109608e+01	1.091565e+01	1.190000e+01	
206	6.000100e-08	1.230000e+01	1.210000e+01	1.190000e+01	
207	6.000100e-08	1.230000e+01	1.210000e+01	1.187988e+01	
208	6.000101e-08	1.230000e+01	1.210000e+01	1.183963e+01	
209	6.000101e-08	1.230000e+01	1.210000e+01	1.175913e+01	
210	6.000102e-08	1.230000e+01	1.210000e+01	1.166851e+01	
211	6.000103e-08	1.230000e+01	1.210000e+01	1.156657e+01	
212	6.000105e-08	1.230000e+01	1.210000e+01	1.136268e+01	
213	6.000108e-08	1.230000e+01	1.210000e+01	1.096616e+01	
214	6.000115e-08	1.230000e+01	1.210000e+01	1.017311e+01	
215	6.000123e-08	1.230000e+01	1.210000e+01	9.135723e+00	
216	6.000136e-08	1.230000e+01	1.210000e+01	7.558076e+00	
217	6.000139e-08	1.230000e+01	1.210000e+01	7.216651e+00	
218	6.000145e-08	1.230000e+01	1.210000e+01	6.533801e+00	
219	6.000157e-08	1.230000e+01	1.210000e+01	5.168101e+00	
220	6.000180e-08	1.230000e+01	1.210000e+01	2.436701e+00	
221	6.000200e-08	1.230000e+01	1.210000e+01	0.000000e+00	
222	6.000200e-08	1.230000e+01	1.210000e+01	0.000000e+00	
223	6.000201e-08	1.230000e+01	1.210000e+01	0.000000e+00	
224	6.000203e-08	1.230000e+01	1.210000e+01	0.000000e+00	
225	6.000206e-08	1.230000e+01	1.210000e+01	0.000000e+00	
226	6.000209e-08	1.230000e+01	1.210000e+01	0.000000e+00	
227	6.000215e-08	1.230000e+01	1.210000e+01	0.000000e+00	
228	6.000223e-08	1.230000e+01	1.210000e+01	0.000000e+00	
229	6.000232e-08	1.230000e+01	1.210000e+01	0.000000e+00	
230	6.000241e-08	1.230000e+01	1.210000e+01	0.000000e+00	
231	6.000255e-08	1.230000e+01	1.210000e+01	0.000000e+00	
232	6.000281e-08	1.230000e+01	1.210000e+01	0.000000e+00	
233	6.000334e-08	1.230000e+01	1.210000e+01	0.000000e+00	
234	6.000428e-08	1.230000e+01	1.210000e+01	0.000000e+00	
235	6.000589e-08	1.230000e+01	1.210000e+01	0.000000e+00	
236	6.000838e-08	1.230000e+01	1.210000e+01	0.000000e+00	
237	6.001166e-08	1.230000e+01	1.210000e+01	0.000000e+00	
238	6.001767e-08	1.230000e+01	1.210000e+01	0.000000e+00	
239	6.002964e-08	1.230000e+01	1.210000e+01	0.000000e+00	
240	6.005359e-08	1.230000e+01	1.210000e+01	0.000000e+00	
241	6.010149e-08	1.230000e+01	1.210000e+01	0.000000e+00	
242	6.019464e-08	1.230000e+01	1.210000e+01	0.000000e+00	
243	6.036891e-08	1.230000e+01	1.210000e+01	0.000000e+00	
244	6.066804e-08	1.230000e+01	1.210000e+01	0.000000e+00	
245	6.098790e-08	1.230000e+01	1.210000e+01	0.000000e+00	
246	6.147629e-08	1.230000e+01	1.210000e+01	0.000000e+00	
247	6.223634e-08	1.230000e+01	1.210000e+01	0.000000e+00	
248	6.375645e-08	1.230000e+01	1.210000e+01	0.000000e+00	
249	6.679667e-08	1.230000e+01	1.210000e+01	0.000000e+00	
250	7.179667e-08	1.230000e+01	1.210000e+01	0.000000e+00	
251	7.500100e-08	1.230000e+01	1.210000e+01	0.000000e+00	
252	7.500101e-08	1.214625e+01	1.210000e+01	0.000000e+00	
253	7.500104e-08	1.183875e+01	1.210000e+01	0.000000e+00	
254	7.500109e-08	1.122375e+01	1.210000e+01	0.000000e+00	
255	7.500114e-08	1.060954e+01	1.210000e+01	0.000000e+00	
256	7.500122e-08	9.597509e+00	1.210000e+01	0.000000e+00	
257	7.500132e-08	8.323213e+00	1.210000e+01	0.000000e+00	
258	7.500147e-08	6.531594e+00	1.210000e+01	0.000000e+00	
259	7.500176e-08	2.948357e+00	1.210000e+01	0.000000e+00	
260	7.500200e-08	0.000000e+00	1.210000e+01	0.000000e+00	
261	7.500200e-08	0.000000e+00	1.210000e+01	0.000000e+00	
262	7.500201e-08	0.000000e+00	1.210000e+01	0.000000e+00	
263	7.500203e-08	0.000000e+00	1.210000e+01	0.000000e+00	
264	7.500205e-08	0.000000e+00	1.210000e+01	0.000000e+00	
265	7.500208e-08	0.000000e+00	1.210000e+01	0.000000e+00	
266	7.500212e-08	0.000000e+00	1.210000e+01	0.000000e+00	
267	7.500222e-08	0.000000e+00	1.210000e+01	0.000000e+00	
268	7.500240e-08	0.000000e+00	1.210000e+01	0.000000e+00	
269	7.500259e-08	0.000000e+00	1.210000e+01	0.000000e+00	
270	7.500280e-08	0.000000e+00	1.210000e+01	0.000000e+00	
271	7.500309e-08	0.000000e+00	1.210000e+01	0.000000e+00	
272	7.500367e-08	0.000000e+00	1.210000e+01	0.000000e+00	
273	7.500485e-08	0.000000e+00	1.210000e+01	0.000000e+00	
274	7.500719e-08	0.000000e+00	1.210000e+01	0.000000e+00	
275	7.501084e-08	0.000000e+00	1.210000e+01	0.000000e+00	
276	7.501521e-08	0.000000e+00	1.210000e+01	0.000000e+00	
277	7.502141e-08	0.000000e+00	1.210000e+01	0.000000e+00	
278	7.503071e-08	0.000000e+00	1.210000e+01	0.000000e+00	
279	7.504915e-08	0.000000e+00	1.210000e+01	0.000000e+00	
280	7.508603e-08	0.000000e+00	1.210000e+01	0.000000e+00	
281	7.515978e-08	0.000000e+00	1.210000e+01	0.000000e+00	
282	7.530728e-08	0.000000e+00	1.210000e+01	0.000000e+00	
283	7.550036e-08	0.000000e+00	1.210000e+01	0.000000e+00	
284	7.583224e-08	0.000000e+00	1.210000e+01	0.000000e+00	
285	7.626568e-08	0.000000e+00	1.210000e+01	0.000000e+00	
286	7.689616e-08	0.000000e+00	1.210000e+01	0.000000e+00	
287	7.769008e-08	0.000000e+00	1.210000e+01	0.000000e+00	
288	7.896795e-08	0.000000e+00	1.210000e+01	0.000000e+00	
289	8.106403e-08	0.000000e+00	1.210000e+01	0.000000e+00	
290	8.525618e-08	0.000000e+00	1.210000e+01	0.000000e+00	
291	9.000000e-08	0.000000e+00	1.210000e+01	0.000000e+00	
292	9.000001e-08	1.537500e-01	1.210000e+01	0.000000e+00	
293	9.000004e-08	4.612500e-01	1.210000e+01	0.000000e+00	
294	9.000009e-08	1.076250e+00	1.210000e+01	0.000000e+00	
295	9.000019e-08	2.306250e+00	1.210000e+01	0.000000e+00	
296	9.000030e-08	3.678468e+00	1.210000e+01	0.000000e+00	
297	9.000041e-08	4.985947e+00	1.210000e+01	0.000000e+00	
298	9.000058e-08	7.101494e+00	1.210000e+01	0.000000e+00	
299	9.000076e-08	9.404958e+00	1.210000e+01	0.000000e+00	
300	9.000100e-08	1.230000e+01	1.210000e+01	0.000000e+00	
301	9.000100e-08	1.230000e+01	1.206042e+01	0.000000e+00	
302	9.000101e-08	1.230000e+01	1.198126e+01	0.000000e+00	
303	9.000102e-08	1.230000e+01	1.182293e+01	0.000000e+00	
304	9.000104e-08	1.230000e+01	1.165106e+01	0.000000e+00	
305	9.000105e-08	1.230000e+01	1.146411e+01	0.000000e+00	
306	9.000108e-08	1.230000e+01	1.109022e+01	0.000000e+00	
307	9.000115e-08	1.230000e+01	1.034242e+01	0.000000e+00	
308	9.000121e-08	1.230000e+01	9.518509e+00	0.000000e+00	
309	9.000122e-08	1.230000e+01	9.420659e+00	0.000000e+00	
310	9.000124e-08	1.230000e+01	9.224958e+00	0.000000e+00	
311	9.000127e-08	1.230000e+01	8.833557e+00	0.000000e+00	
312	9.000133e-08	1.230000e+01	8.050755e+00	0.000000e+00	
313	9.000146e-08	1.230000e+01	6.485151e+00	0.000000e+00	
314	9.000169e-08	1.230000e+01	3.704268e+00	0.000000e+00	
315	9.000173e-08	1.230000e+01	3.241234e+00	0.000000e+00	
316	9.000181e-08	1.230000e+01	2.315167e+00	0.000000e+00	
317	9.000196e-08	1.230000e+01	4.630334e-01	0.000000e+00	
318	9.000200e-08	1.230000e+01	5.262729e-11	0.000000e+00	
319	9.000200e-08	1.230000e+01	0.000000e+00	0.000000e+00	
320	9.000200e-08	1.230000e+01	0.000000e+00	0.000000e+00	
321	9.000201e-08	1.230000e+01	0.000000e+00	0.000000e+00	
322	9.000202e-08	1.230000e+01	0.000000e+00	0.000000e+00	
323	9.000203e-08	1.230000e+01	0.000000e+00	0.000000e+00	
324	9.000206e-08	1.230000e+01	0.000000e+00	0.000000e+00	
325	9.000210e-08	1.230000e+01	0.000000e+00	0.000000e+00	
326	9.000218e-08	1.230000e+01	0.000000e+00	0.000000e+00	
327	9.000227e-08	1.230000e+01	0.000000e+00	0.000000e+00	
328	9.000240e-08	1.230000e+01	0.000000e+00	0.000000e+00	
329	9.000255e-08	1.230000e+01	0.000000e+00	0.000000e+00	
330	9.000271e-08	1.230000e+01	0.000000e+00	0.000000e+00	
331	9.000301e-08	1.230000e+01	0.000000e+00	0.000000e+00	
332	9.000362e-08	1.230000e+01	0.000000e+00	0.000000e+00	
333	9.000484e-08	1.230000e+01	0.000000e+00	0.000000e+00	
334	9.000727e-08	1.230000e+01	0.000000e+00	0.000000e+00	
335	9.001022e-08	1.230000e+01	0.000000e+00	0.000000e+00	
336	9.001472e-08	1.230000e+01	0.000000e+00	0.000000e+00	
337	9.002247e-08	1.230000e+01	0.000000e+00	0.000000e+00	
338	9.003798e-08	1.230000e+01	0.000000e+00	0.000000e+00	
339	9.006900e-08	1.230000e+01	0.000000e+00	0.000000e+00	
340	9.013103e-08	1.230000e+01	0.000000e+00	0.000000e+00	
