
Circuit: Titulo: Circuito XNOR2 c/ transistor MOS

Error on line 162 : m:2:p3 1 5 6 1 modp *inversor
	 unknown parameter (*inversor) 
Error on line 163 : m:2:n3 6 5 0 0 modn *inversor
	 unknown parameter (*inversor) 
Warning: Pd = 0 is less than W.
Warning: Ps = 0 is less than W.
Warning: Pd = 0 is less than W.
Warning: Ps = 0 is less than W.
Circuit: Titulo: Circuito XNOR2 c/ transistor MOS
Date: Mon Sep 06 11:54:05  2010


                    Titulo: Circuito XNOR2 c/ transistor MOS
                    Transient Analysis  Mon Sep 06 11:54:05  2010
--------------------------------------------------------------------------------
Index   time            v(2)            v(3)            v(4)            
--------------------------------------------------------------------------------
0	0.000000e+00	0.000000e+00	0.000000e+00	5.000000e+00	
1	1.000000e-14	5.000000e-02	5.000000e-02	5.001754e+00	
2	2.000000e-14	1.000000e-01	1.000000e-01	5.005029e+00	
3	4.000000e-14	2.000000e-01	2.000000e-01	5.014249e+00	
4	8.000000e-14	4.000000e-01	4.000000e-01	5.045513e+00	
5	1.600000e-13	8.000000e-01	8.000000e-01	5.142529e+00	
6	3.200000e-13	1.600000e+00	1.600000e+00	5.408836e+00	
7	5.302858e-13	2.651429e+00	2.651429e+00	5.838440e+00	
8	7.239848e-13	3.619924e+00	3.619924e+00	6.295948e+00	
9	1.000000e-12	5.000000e+00	5.000000e+00	7.001132e+00	
10	1.009048e-12	5.000000e+00	5.000000e+00	7.022185e+00	
11	1.027143e-12	5.000000e+00	5.000000e+00	7.060568e+00	
12	1.063334e-12	5.000000e+00	5.000000e+00	7.120078e+00	
13	1.135717e-12	5.000000e+00	5.000000e+00	7.202008e+00	
14	1.202584e-12	5.000000e+00	5.000000e+00	7.253151e+00	
15	1.336320e-12	5.000000e+00	5.000000e+00	7.317697e+00	
16	1.536430e-12	5.000000e+00	5.000000e+00	7.349583e+00	
17	1.909439e-12	5.000000e+00	5.000000e+00	7.305296e+00	
18	2.454667e-12	5.000000e+00	5.000000e+00	7.143154e+00	
19	3.545123e-12	5.000000e+00	5.000000e+00	6.644688e+00	
20	4.160197e-12	5.000000e+00	5.000000e+00	6.354197e+00	
21	4.661672e-12	5.000000e+00	5.000000e+00	6.225470e+00	
22	5.361728e-12	5.000000e+00	5.000000e+00	6.115290e+00	
23	6.605995e-12	5.000000e+00	5.000000e+00	5.969407e+00	
24	8.423312e-12	5.000000e+00	5.000000e+00	5.844701e+00	
25	1.139064e-11	5.000000e+00	5.000000e+00	5.715991e+00	
26	1.732531e-11	5.000000e+00	5.000000e+00	5.593364e+00	
27	2.486307e-11	5.000000e+00	5.000000e+00	5.479707e+00	
28	3.993860e-11	5.000000e+00	5.000000e+00	5.271806e+00	
29	6.459192e-11	5.000000e+00	5.000000e+00	4.914639e+00	
30	1.069359e-10	5.000000e+00	5.000000e+00	4.299368e+00	
31	1.587087e-10	5.000000e+00	5.000000e+00	3.517352e+00	
32	2.350061e-10	5.000000e+00	5.000000e+00	2.587417e+00	
33	3.261477e-10	5.000000e+00	5.000000e+00	1.997875e+00	
34	4.095103e-10	5.000000e+00	5.000000e+00	1.613997e+00	
35	5.441345e-10	5.000000e+00	5.000000e+00	1.199139e+00	
36	6.857541e-10	5.000000e+00	5.000000e+00	9.240884e-01	
37	9.689932e-10	5.000000e+00	5.000000e+00	6.041004e-01	
38	1.446772e-09	5.000000e+00	5.000000e+00	3.675032e-01	
39	1.975923e-09	5.000000e+00	5.000000e+00	2.398123e-01	
40	2.842445e-09	5.000000e+00	5.000000e+00	1.251671e-01	
41	3.842445e-09	5.000000e+00	5.000000e+00	5.751862e-02	
42	4.842445e-09	5.000000e+00	5.000000e+00	2.916882e-02	
43	5.842445e-09	5.000000e+00	5.000000e+00	1.213563e-02	
44	6.842445e-09	5.000000e+00	5.000000e+00	7.460085e-03	
45	7.842445e-09	5.000000e+00	5.000000e+00	1.827347e-03	
46	8.842445e-09	5.000000e+00	5.000000e+00	2.563858e-03	
47	9.842445e-09	5.000000e+00	5.000000e+00	-4.850031e-04	
48	1.000100e-08	5.000000e+00	5.000000e+00	1.728606e-03	
49	1.000110e-08	4.500000e+00	5.000000e+00	-4.216520e-02	
50	1.000130e-08	3.500000e+00	5.000000e+00	-1.653458e-01	
51	1.000152e-08	2.394187e+00	5.000000e+00	-3.099711e-01	
52	1.000180e-08	9.925389e-01	5.000000e+00	-4.336967e-01	
53	1.000200e-08	0.000000e+00	5.000000e+00	-4.984084e-01	
54	1.000201e-08	0.000000e+00	5.000000e+00	-4.999342e-01	
55	1.000203e-08	0.000000e+00	5.000000e+00	-5.018395e-01	
56	1.000206e-08	0.000000e+00	5.000000e+00	-5.019697e-01	
57	1.000212e-08	0.000000e+00	5.000000e+00	-4.993429e-01	
58	1.000217e-08	0.000000e+00	5.000000e+00	-4.952063e-01	
59	1.000228e-08	0.000000e+00	5.000000e+00	-4.837802e-01	
60	1.000250e-08	0.000000e+00	5.000000e+00	-4.452380e-01	
61	1.000283e-08	0.000000e+00	5.000000e+00	-3.872769e-01	
62	1.000319e-08	0.000000e+00	5.000000e+00	-3.472051e-01	
63	1.000377e-08	0.000000e+00	5.000000e+00	-3.075504e-01	
64	1.000493e-08	0.000000e+00	5.000000e+00	-2.752145e-01	
65	1.000630e-08	0.000000e+00	5.000000e+00	-2.637515e-01	
66	1.000903e-08	0.000000e+00	5.000000e+00	-2.550117e-01	
67	1.001342e-08	0.000000e+00	5.000000e+00	-2.487334e-01	
68	1.001897e-08	0.000000e+00	5.000000e+00	-2.432208e-01	
69	1.002690e-08	0.000000e+00	5.000000e+00	-2.349747e-01	
70	1.003967e-08	0.000000e+00	5.000000e+00	-2.227651e-01	
71	1.006520e-08	0.000000e+00	5.000000e+00	-1.999813e-01	
72	1.011625e-08	0.000000e+00	5.000000e+00	-1.631437e-01	
73	1.021837e-08	0.000000e+00	5.000000e+00	-1.160353e-01	
74	1.042260e-08	0.000000e+00	5.000000e+00	-5.727315e-02	
75	1.073618e-08	0.000000e+00	5.000000e+00	-1.536847e-02	
76	1.133198e-08	0.000000e+00	5.000000e+00	5.514847e-03	
77	1.210351e-08	0.000000e+00	5.000000e+00	4.587999e-03	
78	1.282339e-08	0.000000e+00	5.000000e+00	3.213607e-03	
79	1.356203e-08	0.000000e+00	5.000000e+00	3.210972e-03	
80	1.425263e-08	0.000000e+00	5.000000e+00	2.996583e-03	
81	1.500911e-08	0.000000e+00	5.000000e+00	2.247820e-03	
82	1.600911e-08	0.000000e+00	5.000000e+00	1.783772e-03	
83	1.664765e-08	0.000000e+00	5.000000e+00	1.080591e-03	
84	1.725094e-08	0.000000e+00	5.000000e+00	8.648038e-04	
85	1.825094e-08	0.000000e+00	5.000000e+00	3.930042e-04	
86	1.925094e-08	0.000000e+00	5.000000e+00	3.032141e-04	
87	2.000000e-08	0.000000e+00	5.000000e+00	1.053519e-04	
88	2.000010e-08	5.000000e-01	5.000000e+00	2.965303e-02	
89	2.000013e-08	6.250000e-01	5.000000e+00	3.819548e-02	
90	2.000017e-08	8.750000e-01	5.000000e+00	5.662072e-02	
91	2.000027e-08	1.375000e+00	5.000000e+00	9.938644e-02	
92	2.000044e-08	2.213185e+00	5.000000e+00	2.068031e-01	
93	2.000047e-08	2.326794e+00	5.000000e+00	2.265051e-01	
94	2.000051e-08	2.554011e+00	5.000000e+00	2.679694e-01	
95	2.000060e-08	3.008446e+00	5.000000e+00	3.619203e-01	
96	2.000078e-08	3.917316e+00	5.000000e+00	5.877640e-01	
97	2.000100e-08	5.000000e+00	5.000000e+00	9.094354e-01	
98	2.000101e-08	5.000000e+00	4.960551e+00	9.208981e-01	
99	2.000102e-08	5.000000e+00	4.881652e+00	9.417456e-01	
100	2.000106e-08	5.000000e+00	4.723855e+00	9.726571e-01	
101	2.000110e-08	5.000000e+00	4.476408e+00	9.995056e-01	
102	2.000116e-08	5.000000e+00	4.216256e+00	1.006894e+00	
103	2.000126e-08	5.000000e+00	3.695952e+00	9.811730e-01	
104	2.000147e-08	5.000000e+00	2.655345e+00	8.757290e-01	
105	2.000169e-08	5.000000e+00	1.558945e+00	7.611019e-01	
106	2.000172e-08	5.000000e+00	1.379178e+00	7.431156e-01	
107	2.000180e-08	5.000000e+00	1.019643e+00	7.075795e-01	
108	2.000194e-08	5.000000e+00	3.005728e-01	6.389018e-01	
109	2.000200e-08	5.000000e+00	5.203200e-12	6.110836e-01	
110	2.000200e-08	5.000000e+00	0.000000e+00	6.092696e-01	
111	2.000201e-08	5.000000e+00	0.000000e+00	6.058609e-01	
112	2.000203e-08	5.000000e+00	0.000000e+00	6.000973e-01	
113	2.000206e-08	5.000000e+00	0.000000e+00	5.915578e-01	
114	2.000210e-08	5.000000e+00	0.000000e+00	5.986940e-01	
115	2.000218e-08	5.000000e+00	0.000000e+00	6.601376e-01	
116	2.000227e-08	5.000000e+00	0.000000e+00	7.501544e-01	
117	2.000238e-08	5.000000e+00	0.000000e+00	8.380278e-01	
118	2.000255e-08	5.000000e+00	0.000000e+00	9.582628e-01	
119	2.000273e-08	5.000000e+00	0.000000e+00	1.053360e+00	
120	2.000309e-08	5.000000e+00	0.000000e+00	1.179695e+00	
121	2.000382e-08	5.000000e+00	0.000000e+00	1.293565e+00	
122	2.000522e-08	5.000000e+00	0.000000e+00	1.339705e+00	
123	2.000676e-08	5.000000e+00	0.000000e+00	1.343357e+00	
124	2.000936e-08	5.000000e+00	0.000000e+00	1.355439e+00	
125	2.001313e-08	5.000000e+00	0.000000e+00	1.372884e+00	
126	2.001828e-08	5.000000e+00	0.000000e+00	1.396992e+00	
127	2.002582e-08	5.000000e+00	0.000000e+00	1.431840e+00	
128	2.003880e-08	5.000000e+00	0.000000e+00	1.490716e+00	
129	2.006413e-08	5.000000e+00	0.000000e+00	1.601516e+00	
130	2.009557e-08	5.000000e+00	0.000000e+00	1.728730e+00	
131	2.015845e-08	5.000000e+00	0.000000e+00	1.944949e+00	
132	2.028421e-08	5.000000e+00	0.000000e+00	2.283036e+00	
133	2.053573e-08	5.000000e+00	0.000000e+00	2.765397e+00	
134	2.079637e-08	5.000000e+00	0.000000e+00	3.123665e+00	
135	2.108963e-08	5.000000e+00	0.000000e+00	3.512204e+00	
136	2.156911e-08	5.000000e+00	0.000000e+00	4.121977e+00	
137	2.207512e-08	5.000000e+00	0.000000e+00	4.505105e+00	
138	2.302802e-08	5.000000e+00	0.000000e+00	4.851035e+00	
139	2.402802e-08	5.000000e+00	0.000000e+00	4.960219e+00	
140	2.502802e-08	5.000000e+00	0.000000e+00	4.990217e+00	
141	2.602802e-08	5.000000e+00	0.000000e+00	4.997459e+00	
142	2.702802e-08	5.000000e+00	0.000000e+00	4.999843e+00	
143	2.802802e-08	5.000000e+00	0.000000e+00	4.999777e+00	
144	2.902802e-08	5.000000e+00	0.000000e+00	5.000291e+00	
145	3.000100e-08	5.000000e+00	0.000000e+00	4.999824e+00	
146	3.000110e-08	4.500000e+00	0.000000e+00	4.943541e+00	
147	3.000130e-08	3.500000e+00	0.000000e+00	4.809869e+00	
148	3.000162e-08	1.914826e+00	0.000000e+00	4.505733e+00	
149	3.000191e-08	4.329270e-01	0.000000e+00	4.050559e+00	
150	3.000200e-08	5.203200e-12	0.000000e+00	3.885124e+00	
151	3.000201e-08	0.000000e+00	0.000000e+00	3.874563e+00	
152	3.000202e-08	0.000000e+00	0.000000e+00	3.854346e+00	
153	3.000204e-08	0.000000e+00	0.000000e+00	3.818331e+00	
154	3.000209e-08	0.000000e+00	0.000000e+00	3.757989e+00	
155	3.000218e-08	0.000000e+00	0.000000e+00	3.663780e+00	
156	3.000236e-08	0.000000e+00	0.000000e+00	3.534684e+00	
157	3.000272e-08	0.000000e+00	0.000000e+00	3.410350e+00	
158	3.000326e-08	0.000000e+00	0.000000e+00	3.379966e+00	
159	3.000433e-08	0.000000e+00	0.000000e+00	3.440200e+00	
160	3.000568e-08	0.000000e+00	0.000000e+00	3.520083e+00	
161	3.000749e-08	0.000000e+00	0.000000e+00	3.575813e+00	
162	3.000948e-08	0.000000e+00	0.000000e+00	3.606286e+00	
163	3.001347e-08	0.000000e+00	0.000000e+00	3.634322e+00	
164	3.001940e-08	0.000000e+00	0.000000e+00	3.648137e+00	
165	3.002694e-08	0.000000e+00	0.000000e+00	3.656636e+00	
166	3.003751e-08	0.000000e+00	0.000000e+00	3.666586e+00	
167	3.005806e-08	0.000000e+00	0.000000e+00	3.685926e+00	
168	3.009623e-08	0.000000e+00	0.000000e+00	3.720914e+00	
169	3.016120e-08	0.000000e+00	0.000000e+00	3.778607e+00	
170	3.029112e-08	0.000000e+00	0.000000e+00	3.886401e+00	
171	3.055098e-08	0.000000e+00	0.000000e+00	4.075560e+00	
172	3.107069e-08	0.000000e+00	0.000000e+00	4.352710e+00	
173	3.169643e-08	0.000000e+00	0.000000e+00	4.479720e+00	
174	3.212840e-08	0.000000e+00	0.000000e+00	4.529850e+00	
175	3.242337e-08	0.000000e+00	0.000000e+00	4.571956e+00	
176	3.275158e-08	0.000000e+00	0.000000e+00	4.626567e+00	
177	3.340800e-08	0.000000e+00	0.000000e+00	4.729711e+00	
178	3.440800e-08	0.000000e+00	0.000000e+00	4.849801e+00	
179	3.540800e-08	0.000000e+00	0.000000e+00	4.921494e+00	
180	3.640800e-08	0.000000e+00	0.000000e+00	4.960858e+00	
181	3.740800e-08	0.000000e+00	0.000000e+00	4.980413e+00	
182	3.840800e-08	0.000000e+00	0.000000e+00	4.990691e+00	
183	3.940800e-08	0.000000e+00	0.000000e+00	4.995194e+00	
184	4.000000e-08	0.000000e+00	0.000000e+00	4.997125e+00	
185	4.000010e-08	5.000000e-01	5.000000e-01	5.089092e+00	
186	4.000030e-08	1.500000e+00	1.500000e+00	5.370036e+00	
187	4.000049e-08	2.428155e+00	2.428155e+00	5.743735e+00	
188	4.000073e-08	3.670294e+00	3.670294e+00	6.318524e+00	
189	4.000100e-08	5.000000e+00	5.000000e+00	7.000032e+00	
190	4.000101e-08	5.000000e+00	5.000000e+00	7.025345e+00	
191	4.000103e-08	5.000000e+00	5.000000e+00	7.070668e+00	
192	4.000104e-08	5.000000e+00	5.000000e+00	7.080115e+00	
193	4.000105e-08	5.000000e+00	5.000000e+00	7.098173e+00	
194	4.000107e-08	5.000000e+00	5.000000e+00	7.129873e+00	
195	4.000112e-08	5.000000e+00	5.000000e+00	7.180958e+00	
196	4.000121e-08	5.000000e+00	5.000000e+00	7.253375e+00	
197	4.000139e-08	5.000000e+00	5.000000e+00	7.329484e+00	
198	4.000158e-08	5.000000e+00	5.000000e+00	7.346510e+00	
199	4.000194e-08	5.000000e+00	5.000000e+00	7.293455e+00	
200	4.000252e-08	5.000000e+00	5.000000e+00	7.118257e+00	
201	4.000366e-08	5.000000e+00	5.000000e+00	6.573557e+00	
202	4.000423e-08	5.000000e+00	5.000000e+00	6.333413e+00	
203	4.000478e-08	5.000000e+00	5.000000e+00	6.207235e+00	
204	4.000546e-08	5.000000e+00	5.000000e+00	6.097648e+00	
205	4.000684e-08	5.000000e+00	5.000000e+00	5.951082e+00	
206	4.000959e-08	5.000000e+00	5.000000e+00	5.781222e+00	
207	4.001510e-08	5.000000e+00	5.000000e+00	5.624650e+00	
208	4.002213e-08	5.000000e+00	5.000000e+00	5.517426e+00	
209	4.003395e-08	5.000000e+00	5.000000e+00	5.351198e+00	
210	4.005729e-08	5.000000e+00	5.000000e+00	5.018736e+00	
211	4.010397e-08	5.000000e+00	5.000000e+00	4.337975e+00	
212	4.019734e-08	5.000000e+00	5.000000e+00	2.968385e+00	
213	4.028452e-08	5.000000e+00	5.000000e+00	2.246746e+00	
214	4.036921e-08	5.000000e+00	5.000000e+00	1.782176e+00	
215	4.047830e-08	5.000000e+00	5.000000e+00	1.378773e+00	
216	4.059862e-08	5.000000e+00	5.000000e+00	1.081342e+00	
217	4.083926e-08	5.000000e+00	5.000000e+00	7.218274e-01	
218	4.127243e-08	5.000000e+00	5.000000e+00	4.296102e-01	
219	4.175986e-08	5.000000e+00	5.000000e+00	2.856115e-01	
220	4.240446e-08	5.000000e+00	5.000000e+00	1.743728e-01	
221	4.335378e-08	5.000000e+00	5.000000e+00	8.469304e-02	
222	4.435378e-08	5.000000e+00	5.000000e+00	4.068118e-02	
223	4.535378e-08	5.000000e+00	5.000000e+00	1.900664e-02	
224	4.635378e-08	5.000000e+00	5.000000e+00	9.375574e-03	
225	4.735378e-08	5.000000e+00	5.000000e+00	4.078184e-03	
226	4.835378e-08	5.000000e+00	5.000000e+00	2.291909e-03	
227	4.935378e-08	5.000000e+00	5.000000e+00	7.007370e-04	
228	5.000000e-08	5.000000e+00	5.000000e+00	8.669741e-04	

                    Titulo: Circuito XNOR2 c/ transistor MOS
                    Transient Analysis  Mon Sep 06 11:54:05  2010
--------------------------------------------------------------------------------
Index   time            v(6)            v(10)           v(90)           
--------------------------------------------------------------------------------
0	0.000000e+00	5.000000e+00	5.000000e-01	4.500000e+00	
1	1.000000e-14	5.000547e+00	5.000000e-01	4.500000e+00	
2	2.000000e-14	5.001563e+00	5.000000e-01	4.500000e+00	
3	4.000000e-14	5.004402e+00	5.000000e-01	4.500000e+00	
4	8.000000e-14	5.013772e+00	5.000000e-01	4.500000e+00	
5	1.600000e-13	5.040760e+00	5.000000e-01	4.500000e+00	
6	3.200000e-13	5.118603e+00	5.000000e-01	4.500000e+00	
7	5.302858e-13	5.288512e+00	5.000000e-01	4.500000e+00	
8	7.239848e-13	5.529914e+00	5.000000e-01	4.500000e+00	
9	1.000000e-12	5.805666e+00	5.000000e-01	4.500000e+00	
10	1.009048e-12	5.808691e+00	5.000000e-01	4.500000e+00	
11	1.027143e-12	5.813153e+00	5.000000e-01	4.500000e+00	
12	1.063334e-12	5.817029e+00	5.000000e-01	4.500000e+00	
13	1.135717e-12	5.818105e+00	5.000000e-01	4.500000e+00	
14	1.202584e-12	5.815022e+00	5.000000e-01	4.500000e+00	
15	1.336320e-12	5.804493e+00	5.000000e-01	4.500000e+00	
16	1.536430e-12	5.785443e+00	5.000000e-01	4.500000e+00	
17	1.909439e-12	5.749927e+00	5.000000e-01	4.500000e+00	
18	2.454667e-12	5.699299e+00	5.000000e-01	4.500000e+00	
19	3.545123e-12	5.563375e+00	5.000000e-01	4.500000e+00	
20	4.160197e-12	5.475425e+00	5.000000e-01	4.500000e+00	
21	4.661672e-12	5.422560e+00	5.000000e-01	4.500000e+00	
22	5.361728e-12	5.379119e+00	5.000000e-01	4.500000e+00	
23	6.605995e-12	5.334770e+00	5.000000e-01	4.500000e+00	
24	8.423312e-12	5.303134e+00	5.000000e-01	4.500000e+00	
25	1.139064e-11	5.283299e+00	5.000000e-01	4.500000e+00	
26	1.732531e-11	5.275172e+00	5.000000e-01	4.500000e+00	
27	2.486307e-11	5.271415e+00	5.000000e-01	4.500000e+00	
28	3.993860e-11	5.259621e+00	5.000000e-01	4.500000e+00	
29	6.459192e-11	5.238244e+00	5.000000e-01	4.500000e+00	
30	1.069359e-10	5.195218e+00	5.000000e-01	4.500000e+00	
31	1.587087e-10	5.136796e+00	5.000000e-01	4.500000e+00	
32	2.350061e-10	5.064868e+00	5.000000e-01	4.500000e+00	
33	3.261477e-10	5.045893e+00	5.000000e-01	4.500000e+00	
34	4.095103e-10	5.056684e+00	5.000000e-01	4.500000e+00	
35	5.441345e-10	5.049926e+00	5.000000e-01	4.500000e+00	
36	6.857541e-10	5.023306e+00	5.000000e-01	4.500000e+00	
37	9.689932e-10	4.955142e+00	5.000000e-01	4.500000e+00	
38	1.446772e-09	4.864138e+00	5.000000e-01	4.500000e+00	
39	1.975923e-09	4.846115e+00	5.000000e-01	4.500000e+00	
40	2.842445e-09	4.891870e+00	5.000000e-01	4.500000e+00	
41	3.842445e-09	4.946401e+00	5.000000e-01	4.500000e+00	
42	4.842445e-09	4.975001e+00	5.000000e-01	4.500000e+00	
43	5.842445e-09	4.988370e+00	5.000000e-01	4.500000e+00	
44	6.842445e-09	4.994511e+00	5.000000e-01	4.500000e+00	
45	7.842445e-09	4.997444e+00	5.000000e-01	4.500000e+00	
46	8.842445e-09	4.998764e+00	5.000000e-01	4.500000e+00	
47	9.842445e-09	4.999446e+00	5.000000e-01	4.500000e+00	
48	1.000100e-08	4.999462e+00	5.000000e-01	4.500000e+00	
49	1.000110e-08	4.974512e+00	5.000000e-01	4.500000e+00	
50	1.000130e-08	4.902454e+00	5.000000e-01	4.500000e+00	
51	1.000152e-08	4.813071e+00	5.000000e-01	4.500000e+00	
52	1.000180e-08	4.729294e+00	5.000000e-01	4.500000e+00	
53	1.000200e-08	4.682266e+00	5.000000e-01	4.500000e+00	
54	1.000201e-08	4.680548e+00	5.000000e-01	4.500000e+00	
55	1.000203e-08	4.677508e+00	5.000000e-01	4.500000e+00	
56	1.000206e-08	4.673129e+00	5.000000e-01	4.500000e+00	
57	1.000212e-08	4.669187e+00	5.000000e-01	4.500000e+00	
58	1.000217e-08	4.666864e+00	5.000000e-01	4.500000e+00	
59	1.000228e-08	4.666868e+00	5.000000e-01	4.500000e+00	
60	1.000250e-08	4.681493e+00	5.000000e-01	4.500000e+00	
61	1.000283e-08	4.705064e+00	5.000000e-01	4.500000e+00	
62	1.000319e-08	4.723010e+00	5.000000e-01	4.500000e+00	
63	1.000377e-08	4.748719e+00	5.000000e-01	4.500000e+00	
64	1.000493e-08	4.782105e+00	5.000000e-01	4.500000e+00	
65	1.000630e-08	4.805597e+00	5.000000e-01	4.500000e+00	
66	1.000903e-08	4.827081e+00	5.000000e-01	4.500000e+00	
67	1.001342e-08	4.839647e+00	5.000000e-01	4.500000e+00	
68	1.001897e-08	4.847358e+00	5.000000e-01	4.500000e+00	
69	1.002690e-08	4.859034e+00	5.000000e-01	4.500000e+00	
70	1.003967e-08	4.876395e+00	5.000000e-01	4.500000e+00	
71	1.006520e-08	4.911195e+00	5.000000e-01	4.500000e+00	
72	1.011625e-08	4.975216e+00	5.000000e-01	4.500000e+00	
73	1.021837e-08	5.087095e+00	5.000000e-01	4.500000e+00	
74	1.042260e-08	5.269608e+00	5.000000e-01	4.500000e+00	
75	1.073618e-08	5.430674e+00	5.000000e-01	4.500000e+00	
76	1.133198e-08	5.380279e+00	5.000000e-01	4.500000e+00	
77	1.210351e-08	4.724974e+00	5.000000e-01	4.500000e+00	
78	1.282339e-08	7.215423e-01	5.000000e-01	4.500000e+00	
79	1.356203e-08	1.958375e-01	5.000000e-01	4.500000e+00	
80	1.425263e-08	9.353927e-02	5.000000e-01	4.500000e+00	
81	1.500911e-08	5.580597e-02	5.000000e-01	4.500000e+00	
82	1.600911e-08	3.812161e-02	5.000000e-01	4.500000e+00	
83	1.664765e-08	2.271142e-02	5.000000e-01	4.500000e+00	
84	1.725094e-08	1.661074e-02	5.000000e-01	4.500000e+00	
85	1.825094e-08	8.530379e-03	5.000000e-01	4.500000e+00	
86	1.925094e-08	5.110725e-03	5.000000e-01	4.500000e+00	
87	2.000000e-08	2.854164e-03	5.000000e-01	4.500000e+00	
88	2.000010e-08	1.965917e-02	5.000000e-01	4.500000e+00	
89	2.000013e-08	2.471373e-02	5.000000e-01	4.500000e+00	
90	2.000017e-08	3.621409e-02	5.000000e-01	4.500000e+00	
91	2.000027e-08	6.230576e-02	5.000000e-01	4.500000e+00	
92	2.000044e-08	1.026573e-01	5.000000e-01	4.500000e+00	
93	2.000047e-08	1.075875e-01	5.000000e-01	4.500000e+00	
94	2.000051e-08	1.173128e-01	5.000000e-01	4.500000e+00	
95	2.000060e-08	1.359559e-01	5.000000e-01	4.500000e+00	
96	2.000078e-08	1.700722e-01	5.000000e-01	4.500000e+00	
97	2.000100e-08	2.056116e-01	5.000000e-01	4.500000e+00	
98	2.000101e-08	2.065651e-01	5.000000e-01	4.500000e+00	
99	2.000102e-08	2.080552e-01	5.000000e-01	4.500000e+00	
100	2.000106e-08	2.091402e-01	5.000000e-01	4.500000e+00	
101	2.000110e-08	2.077945e-01	5.000000e-01	4.500000e+00	
102	2.000116e-08	2.042637e-01	5.000000e-01	4.500000e+00	
103	2.000126e-08	1.918711e-01	5.000000e-01	4.500000e+00	
